!Agilent Technologies,E5071C,MY46214392,A.11.36
!Date: Tue Jun 16 11:54:09 2026
!Data & Calibration Information:
!Freq	S11:SOLT1(ON)
!PortZ  Port1:50+j0
!Above PortZ is port z conversion or system Z0 setting when saving the data.
!When reading, reference impedance value at option line is always used.
# Hz S RI R 50
10000000	3.338592e-002	-1.942572e-001
10156250	2.906675e-002	-1.948403e-001
10312500	2.468090e-002	-1.952731e-001
10468750	2.035205e-002	-1.956419e-001
10625000	1.597314e-002	-1.959641e-001
10781250	1.158779e-002	-1.960820e-001
10937500	7.252194e-003	-1.961589e-001
11093750	2.836496e-003	-1.961445e-001
11250000	-1.578380e-003	-1.960144e-001
11406250	-5.896200e-003	-1.957787e-001
11562500	-1.032770e-002	-1.955464e-001
11718750	-1.467884e-002	-1.950916e-001
11875000	-1.899409e-002	-1.945505e-001
12031250	-2.337603e-002	-1.939938e-001
12187500	-2.763311e-002	-1.932117e-001
12343750	-3.192343e-002	-1.924440e-001
12500000	-3.622130e-002	-1.914824e-001
12656250	-4.049824e-002	-1.905099e-001
12812500	-4.470469e-002	-1.893835e-001
12968750	-4.891170e-002	-1.882003e-001
13125000	-5.301358e-002	-1.869347e-001
13281250	-5.720644e-002	-1.855129e-001
13437500	-6.134891e-002	-1.840623e-001
13593750	-6.534787e-002	-1.824309e-001
13750000	-6.946995e-002	-1.808372e-001
13906250	-7.344287e-002	-1.791001e-001
14062500	-7.742099e-002	-1.772383e-001
14218750	-8.132763e-002	-1.753309e-001
14375000	-8.516374e-002	-1.732866e-001
14531250	-8.903652e-002	-1.711847e-001
14687500	-9.271892e-002	-1.690338e-001
14843750	-9.648330e-002	-1.667217e-001
15000000	-1.001306e-001	-1.644049e-001
15156250	-1.037309e-001	-1.619105e-001
15312500	-1.073333e-001	-1.594476e-001
15468750	-1.108208e-001	-1.567936e-001
15625000	-1.142510e-001	-1.541494e-001
15781250	-1.176130e-001	-1.514086e-001
15937500	-1.209484e-001	-1.485490e-001
16093750	-1.241933e-001	-1.456397e-001
16250000	-1.273682e-001	-1.427051e-001
16406250	-1.304762e-001	-1.396876e-001
16562500	-1.335347e-001	-1.365559e-001
16718750	-1.364485e-001	-1.333460e-001
16875000	-1.393501e-001	-1.301535e-001
17031250	-1.421845e-001	-1.268407e-001
17187500	-1.449300e-001	-1.234318e-001
17343750	-1.475058e-001	-1.200405e-001
17500000	-1.502144e-001	-1.165372e-001
17656250	-1.526161e-001	-1.130144e-001
17812500	-1.551080e-001	-1.094206e-001
17968750	-1.573383e-001	-1.057428e-001
18125000	-1.596727e-001	-1.020926e-001
18281250	-1.618653e-001	-9.829271e-002
18437500	-1.638905e-001	-9.448998e-002
18593750	-1.659021e-001	-9.071334e-002
18750000	-1.678165e-001	-8.677171e-002
18906250	-1.696702e-001	-8.285299e-002
19062500	-1.714377e-001	-7.887219e-002
19218750	-1.730093e-001	-7.491556e-002
19375000	-1.745407e-001	-7.083712e-002
19531250	-1.759727e-001	-6.680269e-002
19687500	-1.773466e-001	-6.271274e-002
19843750	-1.786444e-001	-5.852794e-002
20000000	-1.798182e-001	-5.441220e-002
20156250	-1.808710e-001	-5.021308e-002
20312500	-1.818988e-001	-4.597043e-002
20468750	-1.827669e-001	-4.176354e-002
20625000	-1.835603e-001	-3.752983e-002
20781250	-1.842898e-001	-3.331130e-002
20937500	-1.848407e-001	-2.904683e-002
21093750	-1.853521e-001	-2.480892e-002
21250000	-1.857622e-001	-2.046447e-002
21406250	-1.860706e-001	-1.617887e-002
21562500	-1.862743e-001	-1.187167e-002
21718750	-1.863663e-001	-7.554647e-003
21875000	-1.864631e-001	-3.259955e-003
22031250	-1.862901e-001	1.010305e-003
22187500	-1.861594e-001	5.369476e-003
22343750	-1.858359e-001	9.646927e-003
22500000	-1.854676e-001	1.394761e-002
22656250	-1.850087e-001	1.816504e-002
22812500	-1.844860e-001	2.246855e-002
22968750	-1.837600e-001	2.671035e-002
23125000	-1.830170e-001	3.093981e-002
23281250	-1.821706e-001	3.510472e-002
23437500	-1.812604e-001	3.931459e-002
23593750	-1.801801e-001	4.347006e-002
23750000	-1.790390e-001	4.761665e-002
23906250	-1.777970e-001	5.173120e-002
24062500	-1.765290e-001	5.579057e-002
24218750	-1.750708e-001	5.981844e-002
24375000	-1.736216e-001	6.383294e-002
24531250	-1.720046e-001	6.780014e-002
24687500	-1.703225e-001	7.172128e-002
24843750	-1.685243e-001	7.563943e-002
25000000	-1.666531e-001	7.954303e-002
25156250	-1.647396e-001	8.327716e-002
25312500	-1.627084e-001	8.710475e-002
25468750	-1.606275e-001	9.080965e-002
25625000	-1.583514e-001	9.448210e-002
25781250	-1.560954e-001	9.807918e-002
25937500	-1.537178e-001	1.016659e-001
26093750	-1.512937e-001	1.051351e-001
26250000	-1.487350e-001	1.086000e-001
26406250	-1.461446e-001	1.120304e-001
26562500	-1.434871e-001	1.153329e-001
26718750	-1.407231e-001	1.186280e-001
26875000	-1.379257e-001	1.218041e-001
27031250	-1.350500e-001	1.249144e-001
27187500	-1.320622e-001	1.280611e-001
27343750	-1.290598e-001	1.310597e-001
27500000	-1.259432e-001	1.339672e-001
27656250	-1.227962e-001	1.368249e-001
27812500	-1.196385e-001	1.396274e-001
27968750	-1.163213e-001	1.423462e-001
28125000	-1.129395e-001	1.449653e-001
28281250	-1.095589e-001	1.475121e-001
28437500	-1.061108e-001	1.499903e-001
28593750	-1.025654e-001	1.523986e-001
28750000	-9.901953e-002	1.547239e-001
28906250	-9.538969e-002	1.569818e-001
29062500	-9.170705e-002	1.591245e-001
29218750	-8.798409e-002	1.612060e-001
29375000	-8.423962e-002	1.631948e-001
29531250	-8.046409e-002	1.650883e-001
29687500	-7.655169e-002	1.669492e-001
29843750	-7.270369e-002	1.686888e-001
30000000	-6.878080e-002	1.703496e-001
30156250	-6.480753e-002	1.718684e-001
30312500	-6.084351e-002	1.733124e-001
30468750	-5.683681e-002	1.746719e-001
30625000	-5.280879e-002	1.759448e-001
30781250	-4.868649e-002	1.771350e-001
30937500	-4.462852e-002	1.782840e-001
31093750	-4.049290e-002	1.792324e-001
31250000	-3.626707e-002	1.801418e-001
31406250	-3.215184e-002	1.809740e-001
31562500	-2.799611e-002	1.816456e-001
31718750	-2.378175e-002	1.823065e-001
31875000	-1.957297e-002	1.828030e-001
32031250	-1.533840e-002	1.832721e-001
32187500	-1.111432e-002	1.836273e-001
32343750	-6.900624e-003	1.838530e-001
32500000	-2.671735e-003	1.839867e-001
32656250	1.650734e-003	1.840202e-001
32812500	5.829188e-003	1.839603e-001
32968750	1.004611e-002	1.838634e-001
33125000	1.433185e-002	1.836065e-001
33281250	1.847461e-002	1.832741e-001
33437500	2.272007e-002	1.828842e-001
33593750	2.691882e-002	1.822929e-001
33750000	3.112184e-002	1.816625e-001
33906250	3.529054e-002	1.809946e-001
34062500	3.945369e-002	1.801550e-001
34218750	4.360912e-002	1.792638e-001
34375000	4.772588e-002	1.782756e-001
34531250	5.175729e-002	1.772063e-001
34687500	5.582363e-002	1.760215e-001
34843750	5.993598e-002	1.747592e-001
35000000	6.390094e-002	1.733689e-001
35156250	6.786305e-002	1.719066e-001
35312500	7.180258e-002	1.703932e-001
35468750	7.570526e-002	1.687472e-001
35625000	7.961071e-002	1.670152e-001
35781250	8.343055e-002	1.652010e-001
35937500	8.719978e-002	1.633400e-001
36093750	9.093179e-002	1.613742e-001
36250000	9.466563e-002	1.593007e-001
36406250	9.825471e-002	1.571154e-001
36562500	1.018849e-001	1.549340e-001
36718750	1.054130e-001	1.525788e-001
36875000	1.089346e-001	1.502039e-001
37031250	1.123899e-001	1.477414e-001
37187500	1.157105e-001	1.452588e-001
37343750	1.190164e-001	1.426122e-001
37500000	1.222844e-001	1.399117e-001
37656250	1.254966e-001	1.371913e-001
37812500	1.286354e-001	1.343347e-001
37968750	1.317148e-001	1.314155e-001
38125000	1.347269e-001	1.284417e-001
38281250	1.376839e-001	1.254477e-001
38437500	1.404828e-001	1.223296e-001
38593750	1.432962e-001	1.191221e-001
38750000	1.460375e-001	1.158989e-001
38906250	1.486808e-001	1.126052e-001
39062500	1.512636e-001	1.092340e-001
39218750	1.537459e-001	1.058655e-001
39375000	1.562072e-001	1.023741e-001
39531250	1.584903e-001	9.887595e-002
39687500	1.607822e-001	9.526256e-002
39843750	1.629700e-001	9.165288e-002
40000000	1.650484e-001	8.802582e-002
40156250	1.670641e-001	8.430359e-002
40312500	1.690084e-001	8.053711e-002
40468750	1.708458e-001	7.670776e-002
40625000	1.725700e-001	7.292468e-002
40781250	1.742884e-001	6.905000e-002
40937500	1.758256e-001	6.509272e-002
41093750	1.773457e-001	6.113639e-002
41250000	1.787075e-001	5.711948e-002
41406250	1.800012e-001	5.312621e-002
41562500	1.813093e-001	4.912565e-002
41718750	1.824122e-001	4.501664e-002
41875000	1.834187e-001	4.091718e-002
42031250	1.843759e-001	3.680364e-002
42187500	1.852216e-001	3.265849e-002
42343750	1.859816e-001	2.853535e-002
42500000	1.866490e-001	2.435113e-002
42656250	1.872461e-001	2.018958e-002
42812500	1.877079e-001	1.596179e-002
42968750	1.880664e-001	1.178175e-002
43125000	1.884002e-001	7.561562e-003
43281250	1.885427e-001	3.333948e-003
43437500	1.886961e-001	-8.799773e-004
43593750	1.886709e-001	-5.135426e-003
43750000	1.885547e-001	-9.352641e-003
43906250	1.883643e-001	-1.354665e-002
44062500	1.880876e-001	-1.777239e-002
44218750	1.876749e-001	-2.194663e-002
44375000	1.871795e-001	-2.617031e-002
44531250	1.866479e-001	-3.036046e-002
44687500	1.859596e-001	-3.450044e-002
44843750	1.852512e-001	-3.865202e-002
45000000	1.843816e-001	-4.280336e-002
45156250	1.834221e-001	-4.690248e-002
45312500	1.823818e-001	-5.097804e-002
45468750	1.812309e-001	-5.509697e-002
45625000	1.800286e-001	-5.913335e-002
45781250	1.787520e-001	-6.311103e-002
45937500	1.773124e-001	-6.712436e-002
46093750	1.758273e-001	-7.109019e-002
46250000	1.742609e-001	-7.496269e-002
46406250	1.725723e-001	-7.886078e-002
46562500	1.708122e-001	-8.267910e-002
46718750	1.689472e-001	-8.651206e-002
46875000	1.670156e-001	-9.023855e-002
47031250	1.650397e-001	-9.391553e-002
47187500	1.629384e-001	-9.762980e-002
47343750	1.607556e-001	-1.012443e-001
47500000	1.585050e-001	-1.048202e-001
47656250	1.561259e-001	-1.083112e-001
47812500	1.537458e-001	-1.117750e-001
47968750	1.512282e-001	-1.152484e-001
48125000	1.486625e-001	-1.185853e-001
48281250	1.460365e-001	-1.218326e-001
48437500	1.432822e-001	-1.250580e-001
48593750	1.405111e-001	-1.282438e-001
48750000	1.376014e-001	-1.313093e-001
48906250	1.347363e-001	-1.343175e-001
49062500	1.317084e-001	-1.373234e-001
49218750	1.286264e-001	-1.402632e-001
49375000	1.255185e-001	-1.430806e-001
49531250	1.223172e-001	-1.458031e-001
49687500	1.190602e-001	-1.485451e-001
49843750	1.157447e-001	-1.511571e-001
50000000	1.123764e-001	-1.536720e-001
50156250	1.089514e-001	-1.561213e-001
50312500	1.054474e-001	-1.585156e-001
50468750	1.019359e-001	-1.608111e-001
50625000	9.834407e-002	-1.630319e-001
50781250	9.471202e-002	-1.651944e-001
50937500	9.100785e-002	-1.672292e-001
51093750	8.728825e-002	-1.692363e-001
51250000	8.350209e-002	-1.711443e-001
51406250	7.971011e-002	-1.728998e-001
51562500	7.586226e-002	-1.746259e-001
51718750	7.197182e-002	-1.762688e-001
51875000	6.802533e-002	-1.777961e-001
52031250	6.412820e-002	-1.792049e-001
52187500	6.005151e-002	-1.805772e-001
52343750	5.604860e-002	-1.819052e-001
52500000	5.201855e-002	-1.830755e-001
52656250	4.792553e-002	-1.841773e-001
52812500	4.381419e-002	-1.851542e-001
52968750	3.971969e-002	-1.860215e-001
53125000	3.558459e-002	-1.868888e-001
53281250	3.139693e-002	-1.875591e-001
53437500	2.725820e-002	-1.882175e-001
53593750	2.307532e-002	-1.887388e-001
53750000	1.887451e-002	-1.892009e-001
53906250	1.467483e-002	-1.895202e-001
54062500	1.044228e-002	-1.897787e-001
54218750	6.242795e-003	-1.899385e-001
54375000	2.057988e-003	-1.900341e-001
54531250	-2.207273e-003	-1.899168e-001
54687500	-6.437991e-003	-1.898341e-001
54843750	-1.058654e-002	-1.895841e-001
55000000	-1.480429e-002	-1.892228e-001
55156250	-1.900183e-002	-1.888329e-001
55312500	-2.322000e-002	-1.883230e-001
55468750	-2.739712e-002	-1.877279e-001
55625000	-3.152042e-002	-1.870642e-001
55781250	-3.563067e-002	-1.862742e-001
55937500	-3.971847e-002	-1.853447e-001
56093750	-4.381996e-002	-1.843344e-001
56250000	-4.797105e-002	-1.832927e-001
56406250	-5.197303e-002	-1.820895e-001
56562500	-5.599123e-002	-1.808422e-001
56718750	-5.993977e-002	-1.795589e-001
56875000	-6.398706e-002	-1.780663e-001
57031250	-6.786208e-002	-1.765346e-001
57187500	-7.173318e-002	-1.749708e-001
57343750	-7.563035e-002	-1.731830e-001
57500000	-7.941789e-002	-1.714829e-001
57656250	-8.318183e-002	-1.696085e-001
57812500	-8.691222e-002	-1.676641e-001
57968750	-9.060660e-002	-1.655466e-001
58125000	-9.426552e-002	-1.634558e-001
58281250	-9.783608e-002	-1.612383e-001
58437500	-1.013797e-001	-1.589879e-001
58593750	-1.048308e-001	-1.566053e-001
58750000	-1.082992e-001	-1.541726e-001
58906250	-1.116525e-001	-1.516434e-001
59062500	-1.149703e-001	-1.490724e-001
59218750	-1.182000e-001	-1.463467e-001
59375000	-1.214075e-001	-1.436838e-001
59531250	-1.245446e-001	-1.408847e-001
59687500	-1.276278e-001	-1.379562e-001
59843750	-1.306074e-001	-1.350181e-001
60000000	-1.335140e-001	-1.320982e-001
60156250	-1.363656e-001	-1.289824e-001
60312500	-1.391367e-001	-1.258428e-001
60468750	-1.418659e-001	-1.225980e-001
60625000	-1.445058e-001	-1.193546e-001
60781250	-1.471005e-001	-1.160282e-001
60937500	-1.496125e-001	-1.126565e-001
61093750	-1.520458e-001	-1.092213e-001
61250000	-1.543542e-001	-1.057865e-001
61406250	-1.566662e-001	-1.022041e-001
61562500	-1.588189e-001	-9.863994e-002
61718750	-1.608900e-001	-9.495607e-002
61875000	-1.629410e-001	-9.124485e-002
62031250	-1.648465e-001	-8.756960e-002
62187500	-1.667138e-001	-8.380775e-002
62343750	-1.684859e-001	-8.002688e-002
62500000	-1.701087e-001	-7.613162e-002
62656250	-1.717446e-001	-7.226756e-002
62812500	-1.732408e-001	-6.837622e-002
62968750	-1.746367e-001	-6.440043e-002
63125000	-1.759594e-001	-6.045412e-002
63281250	-1.771622e-001	-5.644056e-002
63437500	-1.783410e-001	-5.238553e-002
63593750	-1.793537e-001	-4.832179e-002
63750000	-1.803211e-001	-4.425050e-002
63906250	-1.812092e-001	-4.016945e-002
64062500	-1.819832e-001	-3.606753e-002
64218750	-1.826386e-001	-3.195221e-002
64375000	-1.832523e-001	-2.774388e-002
64531250	-1.837119e-001	-2.359359e-002
64687500	-1.841113e-001	-1.942420e-002
64843750	-1.843948e-001	-1.524832e-002
65000000	-1.846476e-001	-1.104810e-002
65156250	-1.847533e-001	-6.879823e-003
65312500	-1.847359e-001	-2.686951e-003
65468750	-1.846852e-001	1.447352e-003
65625000	-1.845735e-001	5.720388e-003
65781250	-1.842652e-001	9.822187e-003
65937500	-1.838614e-001	1.398887e-002
66093750	-1.834478e-001	1.812503e-002
66250000	-1.828893e-001	2.230705e-002
66406250	-1.822540e-001	2.639905e-002
66562500	-1.815497e-001	3.050659e-002
66718750	-1.807051e-001	3.464594e-002
66875000	-1.797930e-001	3.871878e-002
67031250	-1.787759e-001	4.274962e-002
67187500	-1.776923e-001	4.679220e-002
67343750	-1.764550e-001	5.081100e-002
67500000	-1.752001e-001	5.474465e-002
67656250	-1.738113e-001	5.871607e-002
67812500	-1.724060e-001	6.268095e-002
67968750	-1.708761e-001	6.651266e-002
68125000	-1.692570e-001	7.033627e-002
68281250	-1.674802e-001	7.409768e-002
68437500	-1.657013e-001	7.789936e-002
68593750	-1.638257e-001	8.164094e-002
68750000	-1.618338e-001	8.532438e-002
68906250	-1.597774e-001	8.892796e-002
69062500	-1.576204e-001	9.252009e-002
69218750	-1.553969e-001	9.606603e-002
69375000	-1.531469e-001	9.954776e-002
69531250	-1.508089e-001	1.029338e-001
69687500	-1.483271e-001	1.063120e-001
69843750	-1.458126e-001	1.096759e-001
70000000	-1.431737e-001	1.129189e-001
70156250	-1.405662e-001	1.161246e-001
70312500	-1.377703e-001	1.192497e-001
70468750	-1.349978e-001	1.223142e-001
70625000	-1.321394e-001	1.253035e-001
70781250	-1.291338e-001	1.282937e-001
70937500	-1.261417e-001	1.311543e-001
71093750	-1.230945e-001	1.339573e-001
71250000	-1.199564e-001	1.367221e-001
71406250	-1.167510e-001	1.393861e-001
71562500	-1.135115e-001	1.419606e-001
71718750	-1.101823e-001	1.444616e-001
71875000	-1.067795e-001	1.468969e-001
72031250	-1.034167e-001	1.492963e-001
72187500	-9.990477e-002	1.515713e-001
72343750	-9.635418e-002	1.537953e-001
72500000	-9.281462e-002	1.559160e-001
72656250	-8.916778e-002	1.579387e-001
72812500	-8.549792e-002	1.599398e-001
72968750	-8.180536e-002	1.617901e-001
73125000	-7.802203e-002	1.636067e-001
73281250	-7.422606e-002	1.652993e-001
73437500	-7.043210e-002	1.669152e-001
73593750	-6.658911e-002	1.684462e-001
73750000	-6.264454e-002	1.699349e-001
73906250	-5.876182e-002	1.712379e-001
74062500	-5.479259e-002	1.725561e-001
74218750	-5.080399e-002	1.737069e-001
74375000	-4.680757e-002	1.747829e-001
74531250	-4.280509e-002	1.758211e-001
74687500	-3.870235e-002	1.767306e-001
74843750	-3.465565e-002	1.775760e-001
75000000	-3.050442e-002	1.782591e-001
75156250	-2.644382e-002	1.789006e-001
75312500	-2.233204e-002	1.794467e-001
75468750	-1.818930e-002	1.798944e-001
75625000	-1.408214e-002	1.802409e-001
75781250	-9.895979e-003	1.804589e-001
75937500	-5.817875e-003	1.806816e-001
76093750	-1.617882e-003	1.807545e-001
76250000	2.489196e-003	1.807058e-001
76406250	6.666368e-003	1.805803e-001
76562500	1.079393e-002	1.804174e-001
76718750	1.492329e-002	1.800679e-001
76875000	1.906692e-002	1.796649e-001
77031250	2.317151e-002	1.791565e-001
77187500	2.730902e-002	1.786095e-001
77343750	3.140370e-002	1.779011e-001
77500000	3.547080e-002	1.771802e-001
77656250	3.956193e-002	1.763160e-001
77812500	4.356231e-002	1.753221e-001
77968750	4.759168e-002	1.743027e-001
78125000	5.155982e-002	1.732008e-001
78281250	5.552114e-002	1.719446e-001
78437500	5.942931e-002	1.706295e-001
78593750	6.331420e-002	1.692396e-001
78750000	6.723157e-002	1.677368e-001
78906250	7.106664e-002	1.662188e-001
79062500	7.486316e-002	1.645323e-001
79218750	7.864674e-002	1.627995e-001
79375000	8.229655e-002	1.609441e-001
79531250	8.602754e-002	1.590551e-001
79687500	8.963829e-002	1.570547e-001
79843750	9.321623e-002	1.549258e-001
80000000	9.672670e-002	1.528160e-001
80156250	1.002701e-001	1.505672e-001
80312500	1.036660e-001	1.482745e-001
80468750	1.070521e-001	1.458729e-001
80625000	1.103786e-001	1.434195e-001
80781250	1.136526e-001	1.408378e-001
80937500	1.168506e-001	1.382196e-001
81093750	1.200507e-001	1.355360e-001
81250000	1.231100e-001	1.328194e-001
81406250	1.261783e-001	1.299394e-001
81562500	1.290874e-001	1.270694e-001
81718750	1.320290e-001	1.241438e-001
81875000	1.348293e-001	1.211099e-001
82031250	1.375505e-001	1.180127e-001
82187500	1.402850e-001	1.148476e-001
82343750	1.429147e-001	1.116546e-001
82500000	1.454329e-001	1.083960e-001
82656250	1.479088e-001	1.050376e-001
82812500	1.502966e-001	1.016525e-001
82968750	1.526364e-001	9.818289e-002
83125000	1.548578e-001	9.477839e-002
83281250	1.569862e-001	9.120840e-002
83437500	1.590745e-001	8.763713e-002
83593750	1.611108e-001	8.399756e-002
83750000	1.629921e-001	8.033014e-002
83906250	1.648235e-001	7.656614e-002
84062500	1.665909e-001	7.284935e-002
84218750	1.682625e-001	6.906884e-002
84375000	1.697791e-001	6.519192e-002
84531250	1.712868e-001	6.139442e-002
84687500	1.727179e-001	5.747811e-002
84843750	1.739910e-001	5.353428e-002
85000000	1.752037e-001	4.959615e-002
85156250	1.763317e-001	4.561140e-002
85312500	1.773785e-001	4.160768e-002
85468750	1.783359e-001	3.757981e-002
85625000	1.791954e-001	3.351659e-002
85781250	1.799392e-001	2.944854e-002
85937500	1.806222e-001	2.538065e-002
86093750	1.812511e-001	2.131430e-002
86250000	1.816730e-001	1.714450e-002
86406250	1.821512e-001	1.304284e-002
86562500	1.823991e-001	8.924039e-003
86718750	1.826372e-001	4.786115e-003
86875000	1.827597e-001	6.603690e-004
87031250	1.827626e-001	-3.483269e-003
87187500	1.827295e-001	-7.651286e-003
87343750	1.825170e-001	-1.179451e-002
87500000	1.822825e-001	-1.591897e-002
87656250	1.818662e-001	-2.003595e-002
87812500	1.814831e-001	-2.414759e-002
87968750	1.809516e-001	-2.823197e-002
88125000	1.802615e-001	-3.235981e-002
88281250	1.795562e-001	-3.644384e-002
88437500	1.787706e-001	-4.050675e-002
88593750	1.778544e-001	-4.452407e-002
