!Agilent Technologies,E5071C,MY46214392,A.11.36
!Date: Wed May 27 13:04:36 2026
!Data & Calibration Information:
!Freq	S11:SOLT1(ON)
!PortZ  Port1:50+j0
!Above PortZ is port z conversion or system Z0 setting when saving the data.
!When reading, reference impedance value at option line is always used.
# Hz S RI R 50
300000	9.780798e-001	-1.518029e-003
612313	9.783296e-001	-2.114255e-003
924625	9.795366e-001	-5.089549e-003
1236938	9.799765e-001	-6.416834e-003
1549250	9.807530e-001	-8.512008e-003
1861563	9.808129e-001	-9.245421e-003
2173875	9.804861e-001	-1.013812e-002
2486188	9.806472e-001	-1.228942e-002
2798500	9.806755e-001	-1.375649e-002
3110813	9.812375e-001	-1.459114e-002
3423125	9.809206e-001	-1.629584e-002
3735438	9.802868e-001	-1.812984e-002
4047750	9.805792e-001	-1.912548e-002
4360063	9.795398e-001	-2.110266e-002
4672375	9.792992e-001	-2.202179e-002
4984688	9.793021e-001	-2.392615e-002
5297000	9.791513e-001	-2.499124e-002
5609313	9.799113e-001	-2.682676e-002
5921625	9.790649e-001	-2.741250e-002
6233938	9.791107e-001	-2.921012e-002
6546250	9.785722e-001	-3.000928e-002
6858563	9.784941e-001	-3.192453e-002
7170875	9.782308e-001	-3.359998e-002
7483188	9.785413e-001	-3.452805e-002
7795500	9.778100e-001	-3.604590e-002
8107813	9.779451e-001	-3.751234e-002
8420125	9.777474e-001	-3.872910e-002
8732438	9.772197e-001	-4.040035e-002
9044750	9.773323e-001	-4.146103e-002
9357063	9.769947e-001	-4.246854e-002
9669375	9.766446e-001	-4.422548e-002
9981688	9.760626e-001	-4.583854e-002
10294000	9.758610e-001	-4.677990e-002
10606313	9.758832e-001	-4.815675e-002
10918625	9.761156e-001	-4.992129e-002
11230938	9.757388e-001	-5.057663e-002
11543250	9.755753e-001	-5.168938e-002
11855563	9.748236e-001	-5.334300e-002
12167875	9.749697e-001	-5.474728e-002
12480188	9.745236e-001	-5.601888e-002
12792500	9.740104e-001	-5.743123e-002
13104813	9.738324e-001	-5.874788e-002
13417125	9.738553e-001	-5.981558e-002
13729438	9.732657e-001	-6.132226e-002
14041750	9.731496e-001	-6.250210e-002
14354063	9.726153e-001	-6.392357e-002
14666375	9.721301e-001	-6.534119e-002
14978688	9.719449e-001	-6.630509e-002
15291000	9.719265e-001	-6.803406e-002
15603313	9.713713e-001	-6.876753e-002
15915625	9.714866e-001	-7.028746e-002
16227938	9.709440e-001	-7.155402e-002
16540250	9.707666e-001	-7.267060e-002
16852563	9.702337e-001	-7.403391e-002
17164875	9.703167e-001	-7.538024e-002
17477188	9.697880e-001	-7.668456e-002
17789500	9.696594e-001	-7.772700e-002
18101813	9.693357e-001	-7.912020e-002
18414125	9.687798e-001	-8.022051e-002
18726438	9.682526e-001	-8.160650e-002
19038750	9.680296e-001	-8.310587e-002
19351063	9.678633e-001	-8.405096e-002
19663375	9.673283e-001	-8.551866e-002
19975688	9.670763e-001	-8.691008e-002
20288000	9.665686e-001	-8.782865e-002
20600313	9.663280e-001	-8.898451e-002
20912625	9.658207e-001	-9.021926e-002
21224938	9.656470e-001	-9.151471e-002
21537250	9.653820e-001	-9.220378e-002
21849563	9.648461e-001	-9.371764e-002
22161875	9.643875e-001	-9.529724e-002
22474188	9.642335e-001	-9.651505e-002
22786500	9.637326e-001	-9.760537e-002
23098813	9.636318e-001	-9.882864e-002
23411125	9.630430e-001	-9.981754e-002
23723438	9.629125e-001	-1.013903e-001
24035750	9.624701e-001	-1.024348e-001
24348063	9.616044e-001	-1.036180e-001
24660375	9.615005e-001	-1.044679e-001
24972688	9.612189e-001	-1.055304e-001
25285000	9.606439e-001	-1.071862e-001
25597313	9.600969e-001	-1.081684e-001
25909625	9.601463e-001	-1.093184e-001
26221938	9.593771e-001	-1.107434e-001
26534250	9.591064e-001	-1.121099e-001
26846563	9.587086e-001	-1.129085e-001
27158875	9.585235e-001	-1.139403e-001
27471188	9.579372e-001	-1.156089e-001
27783500	9.574755e-001	-1.164070e-001
28095813	9.569214e-001	-1.173882e-001
28408125	9.565740e-001	-1.185941e-001
28720438	9.563029e-001	-1.197701e-001
29032750	9.561559e-001	-1.209364e-001
29345063	9.554167e-001	-1.221024e-001
29657375	9.550146e-001	-1.235074e-001
29969688	9.545689e-001	-1.246396e-001
30282000	9.541737e-001	-1.256125e-001
30594313	9.537283e-001	-1.265264e-001
30906625	9.535450e-001	-1.277016e-001
31218938	9.527908e-001	-1.291593e-001
31531250	9.528141e-001	-1.299416e-001
31843563	9.521488e-001	-1.308944e-001
32155875	9.516354e-001	-1.322308e-001
32468188	9.512132e-001	-1.330732e-001
32780500	9.509563e-001	-1.344723e-001
33092813	9.506568e-001	-1.354480e-001
33405125	9.501767e-001	-1.366128e-001
33717438	9.496492e-001	-1.380646e-001
34029750	9.488813e-001	-1.386891e-001
34342063	9.488086e-001	-1.399867e-001
34654375	9.479724e-001	-1.410279e-001
34966688	9.477205e-001	-1.419540e-001
35279000	9.475396e-001	-1.433051e-001
35591313	9.469183e-001	-1.442054e-001
35903625	9.459644e-001	-1.456066e-001
36215938	9.461362e-001	-1.463954e-001
36528250	9.456387e-001	-1.476992e-001
36840563	9.450920e-001	-1.485208e-001
37152875	9.449551e-001	-1.493417e-001
37465188	9.442827e-001	-1.506793e-001
37777500	9.438756e-001	-1.520568e-001
38089813	9.431416e-001	-1.530526e-001
38402125	9.431068e-001	-1.540639e-001
38714438	9.426391e-001	-1.551465e-001
39026750	9.422080e-001	-1.561860e-001
39339063	9.416100e-001	-1.573093e-001
39651375	9.409781e-001	-1.582275e-001
39963688	9.407782e-001	-1.588666e-001
40276000	9.404770e-001	-1.604166e-001
40588313	9.399938e-001	-1.610203e-001
40900625	9.396255e-001	-1.621101e-001
41212938	9.391408e-001	-1.632242e-001
41525250	9.385357e-001	-1.642891e-001
41837563	9.381907e-001	-1.656755e-001
42149875	9.377146e-001	-1.663329e-001
42462188	9.373880e-001	-1.676864e-001
42774500	9.370208e-001	-1.686030e-001
43086813	9.363219e-001	-1.697661e-001
43399125	9.360343e-001	-1.709313e-001
43711438	9.355110e-001	-1.716228e-001
44023750	9.348271e-001	-1.725724e-001
44336063	9.345668e-001	-1.740099e-001
44648375	9.343164e-001	-1.748392e-001
44960688	9.337089e-001	-1.759490e-001
45273000	9.329278e-001	-1.772961e-001
45585313	9.327154e-001	-1.781230e-001
45897625	9.320501e-001	-1.790827e-001
46209938	9.318035e-001	-1.802099e-001
46522250	9.312770e-001	-1.812107e-001
46834563	9.307061e-001	-1.825519e-001
47146875	9.302460e-001	-1.832212e-001
47459188	9.299314e-001	-1.843714e-001
47771500	9.295105e-001	-1.854073e-001
48083813	9.291471e-001	-1.862906e-001
48396125	9.279823e-001	-1.872983e-001
48708438	9.277552e-001	-1.883421e-001
49020750	9.272737e-001	-1.895792e-001
49333063	9.268117e-001	-1.903599e-001
49645375	9.262666e-001	-1.912706e-001
49957688	9.256742e-001	-1.924876e-001
50270000	9.252184e-001	-1.931628e-001
50582313	9.249378e-001	-1.942875e-001
50894625	9.246320e-001	-1.957747e-001
51206938	9.236137e-001	-1.963274e-001
51519250	9.238531e-001	-1.975506e-001
51831563	9.230003e-001	-1.984773e-001
52143875	9.222103e-001	-1.996952e-001
52456188	9.218741e-001	-2.006195e-001
52768500	9.215351e-001	-2.013935e-001
53080813	9.210320e-001	-2.024078e-001
53393125	9.204366e-001	-2.034081e-001
53705438	9.200468e-001	-2.043996e-001
54017750	9.195325e-001	-2.052051e-001
54330063	9.186478e-001	-2.063625e-001
54642375	9.184502e-001	-2.073252e-001
54954688	9.178277e-001	-2.086946e-001
55267000	9.174043e-001	-2.092859e-001
55579313	9.171051e-001	-2.104005e-001
55891625	9.163711e-001	-2.113033e-001
56203938	9.157525e-001	-2.123628e-001
56516250	9.152098e-001	-2.129681e-001
56828563	9.146651e-001	-2.141821e-001
57140875	9.144727e-001	-2.152820e-001
57453188	9.137023e-001	-2.162950e-001
57765500	9.135489e-001	-2.175812e-001
58077813	9.126404e-001	-2.181309e-001
58390125	9.121725e-001	-2.191129e-001
58702438	9.118714e-001	-2.202142e-001
59014750	9.111115e-001	-2.212379e-001
59327063	9.108413e-001	-2.221857e-001
59639375	9.101455e-001	-2.232017e-001
59951688	9.095370e-001	-2.240338e-001
60264000	9.089758e-001	-2.250922e-001
60576313	9.082776e-001	-2.261192e-001
60888625	9.082320e-001	-2.268881e-001
61200938	9.071328e-001	-2.278459e-001
61513250	9.066283e-001	-2.287405e-001
61825563	9.062981e-001	-2.299029e-001
62137875	9.057778e-001	-2.309439e-001
62450188	9.053564e-001	-2.316755e-001
62762500	9.045789e-001	-2.321644e-001
63074813	9.042623e-001	-2.335286e-001
63387125	9.038641e-001	-2.347047e-001
63699438	9.028311e-001	-2.354361e-001
64011750	9.024132e-001	-2.363526e-001
64324063	9.018107e-001	-2.375101e-001
64636375	9.010545e-001	-2.383180e-001
64948688	9.010706e-001	-2.394468e-001
65261000	9.005722e-001	-2.401286e-001
65573313	9.004119e-001	-2.409335e-001
65885625	8.996517e-001	-2.422223e-001
66197938	8.992269e-001	-2.430925e-001
66510250	8.985072e-001	-2.437237e-001
66822563	8.979512e-001	-2.449983e-001
67134875	8.974491e-001	-2.456061e-001
67447188	8.971416e-001	-2.470975e-001
67759500	8.967243e-001	-2.479786e-001
68071813	8.974536e-001	-2.480700e-001
68384125	8.969198e-001	-2.488353e-001
68696438	8.967188e-001	-2.499305e-001
69008750	8.963554e-001	-2.509205e-001
69321063	8.954052e-001	-2.516314e-001
69633375	8.947229e-001	-2.524648e-001
69945688	8.944630e-001	-2.533640e-001
70258000	8.938350e-001	-2.544870e-001
70570313	8.931520e-001	-2.555784e-001
70882625	8.929522e-001	-2.558499e-001
71194938	8.922279e-001	-2.565993e-001
71507250	8.918423e-001	-2.580195e-001
71819563	8.915307e-001	-2.590537e-001
72131875	8.903008e-001	-2.602514e-001
72444188	8.899918e-001	-2.606771e-001
72756500	8.891164e-001	-2.614568e-001
73068813	8.889266e-001	-2.624449e-001
73381125	8.883440e-001	-2.633305e-001
73693438	8.876655e-001	-2.642700e-001
74005750	8.870457e-001	-2.650043e-001
74318063	8.870779e-001	-2.658266e-001
74630375	8.860640e-001	-2.674897e-001
74942688	8.852582e-001	-2.677338e-001
75255000	8.849410e-001	-2.682917e-001
75567313	8.845628e-001	-2.692741e-001
75879625	8.839106e-001	-2.701583e-001
76191938	8.831118e-001	-2.714216e-001
76504250	8.825979e-001	-2.724161e-001
76816563	8.820384e-001	-2.728927e-001
77128875	8.817518e-001	-2.740977e-001
77441188	8.811581e-001	-2.747872e-001
77753500	8.799863e-001	-2.750871e-001
78065813	8.795745e-001	-2.763969e-001
78378125	8.791385e-001	-2.775060e-001
78690438	8.785339e-001	-2.784092e-001
79002750	8.782255e-001	-2.792375e-001
79315063	8.776570e-001	-2.795019e-001
79627375	8.767349e-001	-2.803612e-001
79939688	8.764280e-001	-2.813183e-001
80252000	8.756223e-001	-2.820347e-001
80564313	8.750887e-001	-2.833181e-001
80876625	8.747978e-001	-2.836526e-001
81188938	8.739546e-001	-2.848717e-001
81501250	8.733653e-001	-2.855425e-001
81813563	8.730980e-001	-2.864572e-001
82125875	8.723648e-001	-2.876315e-001
82438188	8.716426e-001	-2.883846e-001
82750500	8.714262e-001	-2.888503e-001
83062813	8.708560e-001	-2.896423e-001
83375125	8.701603e-001	-2.903510e-001
83687438	8.695893e-001	-2.911687e-001
83999750	8.690424e-001	-2.922872e-001
84312063	8.680627e-001	-2.929189e-001
84624375	8.681321e-001	-2.940877e-001
84936688	8.671024e-001	-2.945350e-001
85249000	8.667769e-001	-2.955475e-001
85561313	8.657523e-001	-2.962678e-001
85873625	8.655981e-001	-2.971119e-001
86185938	8.651213e-001	-2.980281e-001
86498250	8.645497e-001	-2.988814e-001
86810563	8.638852e-001	-2.991842e-001
87122875	8.629300e-001	-3.000578e-001
87435188	8.626184e-001	-3.010124e-001
87747500	8.620320e-001	-3.020314e-001
88059813	8.616142e-001	-3.027262e-001
88372125	8.614330e-001	-3.032334e-001
88684438	8.604164e-001	-3.043536e-001
88996750	8.600351e-001	-3.049426e-001
89309063	8.596131e-001	-3.058531e-001
89621375	8.589373e-001	-3.065002e-001
89933688	8.579906e-001	-3.068960e-001
90246000	8.576461e-001	-3.078692e-001
90558313	8.572147e-001	-3.087415e-001
90870625	8.566057e-001	-3.097622e-001
91182938	8.558160e-001	-3.102651e-001
91495250	8.555308e-001	-3.110043e-001
91807563	8.551345e-001	-3.116750e-001
92119875	8.542624e-001	-3.123931e-001
92432188	8.538859e-001	-3.134674e-001
92744500	8.534830e-001	-3.135729e-001
93056813	8.528420e-001	-3.151961e-001
93369125	8.520621e-001	-3.156989e-001
93681438	8.517040e-001	-3.165540e-001
93993750	8.512834e-001	-3.172171e-001
94306063	8.505450e-001	-3.178396e-001
94618375	8.498050e-001	-3.187177e-001
94930688	8.495251e-001	-3.193079e-001
95243000	8.484747e-001	-3.198913e-001
95555313	8.483464e-001	-3.205321e-001
95867625	8.475647e-001	-3.214272e-001
96179938	8.471003e-001	-3.216685e-001
96492250	8.466404e-001	-3.225855e-001
96804563	8.460889e-001	-3.231714e-001
97116875	8.458275e-001	-3.238344e-001
97429188	8.452069e-001	-3.249576e-001
97741500	8.445169e-001	-3.254123e-001
98053813	8.441291e-001	-3.260675e-001
98366125	8.432308e-001	-3.265769e-001
98678438	8.430018e-001	-3.273435e-001
98990750	8.423610e-001	-3.281048e-001
99303063	8.419071e-001	-3.284738e-001
99615375	8.413469e-001	-3.292334e-001
99927688	8.409378e-001	-3.298372e-001
100240000	8.407389e-001	-3.305884e-001
100552313	8.403116e-001	-3.312211e-001
100864625	8.393552e-001	-3.317234e-001
101176938	8.390737e-001	-3.325434e-001
101489250	8.384501e-001	-3.330549e-001
101801563	8.382971e-001	-3.334903e-001
102113875	8.375100e-001	-3.344887e-001
102426188	8.373695e-001	-3.350851e-001
102738500	8.368122e-001	-3.358219e-001
103050813	8.363477e-001	-3.362529e-001
103363125	8.354089e-001	-3.367971e-001
103675438	8.347404e-001	-3.375897e-001
103987750	8.345361e-001	-3.379109e-001
104300063	8.341322e-001	-3.389676e-001
104612375	8.332370e-001	-3.395137e-001
104924688	8.328995e-001	-3.400766e-001
105237000	8.327218e-001	-3.406982e-001
105549313	8.320764e-001	-3.412396e-001
105861625	8.316100e-001	-3.423012e-001
106173938	8.309132e-001	-3.427851e-001
106486250	8.305679e-001	-3.436006e-001
106798563	8.301095e-001	-3.440056e-001
107110875	8.300677e-001	-3.446665e-001
107423188	8.290832e-001	-3.451851e-001
107735500	8.286982e-001	-3.456802e-001
108047813	8.280296e-001	-3.464163e-001
108360125	8.276373e-001	-3.468898e-001
108672438	8.270458e-001	-3.477893e-001
108984750	8.267295e-001	-3.488171e-001
109297063	8.261914e-001	-3.489902e-001
109609375	8.259304e-001	-3.498192e-001
109921688	8.251010e-001	-3.504927e-001
110234000	8.246366e-001	-3.508817e-001
110546313	8.244060e-001	-3.517804e-001
110858625	8.235294e-001	-3.523436e-001
111170938	8.233050e-001	-3.529995e-001
111483250	8.228809e-001	-3.535125e-001
111795563	8.220856e-001	-3.539897e-001
112107875	8.218642e-001	-3.548457e-001
112420188	8.212952e-001	-3.551966e-001
112732500	8.207084e-001	-3.563104e-001
113044813	8.200395e-001	-3.570306e-001
113357125	8.202453e-001	-3.575338e-001
113669438	8.195601e-001	-3.582498e-001
113981750	8.190591e-001	-3.583484e-001
114294063	8.181896e-001	-3.595344e-001
114606375	8.180560e-001	-3.597580e-001
114918688	8.175644e-001	-3.609800e-001
115231000	8.169841e-001	-3.613357e-001
115543313	8.162076e-001	-3.616858e-001
115855625	8.159156e-001	-3.626853e-001
116167938	8.156215e-001	-3.630941e-001
116480250	8.147114e-001	-3.636875e-001
116792563	8.145705e-001	-3.640349e-001
117104875	8.141415e-001	-3.648725e-001
117417188	8.138392e-001	-3.653936e-001
117729500	8.135377e-001	-3.660975e-001
118041813	8.130673e-001	-3.665354e-001
118354125	8.125515e-001	-3.671718e-001
118666438	8.117571e-001	-3.674974e-001
118978750	8.117444e-001	-3.683393e-001
119291063	8.113893e-001	-3.687080e-001
119603375	8.108534e-001	-3.694452e-001
119915688	8.101485e-001	-3.702412e-001
120228000	8.093820e-001	-3.705017e-001
120540313	8.092904e-001	-3.712605e-001
120852625	8.087256e-001	-3.722235e-001
121164938	8.080393e-001	-3.726882e-001
121477250	8.070846e-001	-3.736100e-001
121789563	8.070804e-001	-3.742449e-001
122101875	8.060646e-001	-3.749587e-001
122414188	8.054806e-001	-3.756032e-001
122726500	8.052180e-001	-3.761183e-001
123038813	8.045527e-001	-3.767792e-001
123351125	8.041911e-001	-3.771405e-001
123663438	8.035275e-001	-3.779817e-001
123975750	8.031757e-001	-3.783379e-001
124288063	8.026115e-001	-3.792328e-001
124600375	8.021228e-001	-3.798311e-001
124912688	8.016911e-001	-3.805630e-001
125225000	8.014079e-001	-3.808057e-001
125537313	8.007018e-001	-3.812842e-001
125849625	8.003752e-001	-3.813629e-001
126161938	8.002487e-001	-3.824256e-001
126474250	7.994225e-001	-3.828821e-001
126786563	7.997154e-001	-3.834157e-001
127098875	7.988932e-001	-3.837066e-001
127411188	7.985070e-001	-3.844684e-001
127723500	7.980175e-001	-3.848535e-001
128035813	7.977216e-001	-3.847305e-001
128348125	7.971111e-001	-3.857704e-001
128660438	7.969821e-001	-3.864542e-001
128972750	7.962690e-001	-3.865807e-001
129285063	7.961062e-001	-3.872504e-001
129597375	7.955771e-001	-3.875928e-001
129909688	7.952406e-001	-3.879622e-001
130222000	7.945693e-001	-3.886455e-001
130534313	7.945835e-001	-3.894041e-001
130846625	7.934330e-001	-3.896341e-001
131158938	7.935104e-001	-3.902734e-001
131471250	7.931400e-001	-3.909895e-001
131783563	7.922607e-001	-3.910959e-001
132095875	7.922127e-001	-3.918117e-001
132408188	7.915819e-001	-3.919712e-001
132720500	7.916681e-001	-3.927599e-001
133032813	7.912213e-001	-3.931139e-001
133345125	7.902786e-001	-3.938559e-001
133657438	7.900031e-001	-3.943455e-001
133969750	7.892459e-001	-3.954494e-001
134282063	7.884630e-001	-3.956358e-001
134594375	7.885402e-001	-3.961902e-001
134906688	7.876425e-001	-3.968411e-001
135219000	7.877945e-001	-3.974529e-001
135531313	7.871931e-001	-3.978554e-001
135843625	7.868906e-001	-3.981145e-001
136155938	7.864406e-001	-3.990981e-001
136468250	7.856686e-001	-3.993749e-001
136780563	7.851406e-001	-3.994874e-001
137092875	7.850521e-001	-3.999003e-001
137405188	7.842746e-001	-4.006825e-001
137717500	7.838061e-001	-4.013272e-001
138029813	7.836397e-001	-4.021307e-001
138342125	7.828168e-001	-4.021390e-001
138654438	7.823916e-001	-4.031144e-001
138966750	7.820556e-001	-4.036055e-001
139279063	7.819709e-001	-4.040032e-001
139591375	7.811115e-001	-4.042230e-001
139903688	7.807996e-001	-4.049327e-001
140216000	7.802707e-001	-4.055054e-001
140528313	7.796674e-001	-4.061285e-001
140840625	7.793066e-001	-4.067698e-001
141152938	7.788581e-001	-4.072866e-001
141465250	7.786026e-001	-4.076112e-001
141777563	7.778807e-001	-4.082059e-001
142089875	7.775016e-001	-4.088360e-001
142402188	7.769081e-001	-4.093211e-001
142714500	7.766612e-001	-4.098867e-001
143026813	7.761984e-001	-4.102490e-001
143339125	7.760718e-001	-4.106543e-001
143651438	7.752119e-001	-4.118778e-001
143963750	7.745174e-001	-4.121018e-001
144276063	7.740602e-001	-4.125077e-001
144588375	7.735936e-001	-4.130108e-001
144900688	7.731446e-001	-4.141576e-001
145213000	7.729422e-001	-4.138131e-001
145525313	7.722074e-001	-4.146537e-001
145837625	7.718744e-001	-4.156364e-001
146149938	7.716249e-001	-4.158717e-001
146462250	7.708580e-001	-4.159100e-001
146774563	7.704763e-001	-4.165915e-001
147086875	7.701854e-001	-4.171865e-001
147399188	7.695364e-001	-4.176656e-001
147711500	7.693348e-001	-4.180265e-001
148023813	7.684671e-001	-4.182633e-001
148336125	7.687206e-001	-4.187190e-001
148648438	7.681138e-001	-4.195400e-001
148960750	7.673232e-001	-4.199845e-001
149273063	7.668953e-001	-4.202765e-001
149585375	7.666025e-001	-4.209412e-001
149897688	7.661981e-001	-4.215378e-001
150210000	7.656043e-001	-4.219289e-001
150522313	7.653171e-001	-4.221997e-001
150834625	7.650805e-001	-4.225948e-001
151146938	7.647480e-001	-4.232860e-001
151459250	7.638067e-001	-4.238994e-001
151771563	7.635403e-001	-4.242448e-001
152083875	7.629446e-001	-4.246982e-001
152396188	7.627325e-001	-4.253121e-001
152708500	7.621464e-001	-4.258418e-001
153020813	7.618744e-001	-4.264530e-001
153333125	7.612398e-001	-4.268232e-001
153645438	7.609875e-001	-4.275441e-001
153957750	7.602128e-001	-4.276791e-001
154270063	7.596724e-001	-4.281542e-001
154582375	7.595534e-001	-4.285009e-001
154894688	7.590474e-001	-4.291491e-001
155207000	7.585747e-001	-4.295981e-001
155519313	7.581515e-001	-4.304058e-001
155831625	7.577032e-001	-4.309127e-001
156143938	7.571910e-001	-4.316188e-001
