!Agilent Technologies,E5071C,MY46214392,A.11.36
!Date: Thu Jun 18 15:58:01 2026
!Data & Calibration Information:
!Freq	S11:SOLT1(OFF)	S21:NONE(--)	S12:NONE(--)	S22:NONE(--)
!PortZ  Port1:50+j0    Port2:50+j0
!Above PortZ is port z conversion or system Z0 setting when saving the data.
!When reading, reference impedance value at option line is always used.
# Hz S dB R 50
10000000	-2.000000e+002	0.000000e+000	-9.025491e-002	-4.630811e+001	-2.000000e+002	0.000000e+000	-2.000000e+002	0.000000e+000
10156250	-2.000000e+002	0.000000e+000	-9.098775e-002	-4.703420e+001	-2.000000e+002	0.000000e+000	-2.000000e+002	0.000000e+000
10312500	-2.000000e+002	0.000000e+000	-9.176229e-002	-4.775162e+001	-2.000000e+002	0.000000e+000	-2.000000e+002	0.000000e+000
10468750	-2.000000e+002	0.000000e+000	-9.245095e-002	-4.846818e+001	-2.000000e+002	0.000000e+000	-2.000000e+002	0.000000e+000
10625000	-2.000000e+002	0.000000e+000	-9.291710e-002	-4.918482e+001	-2.000000e+002	0.000000e+000	-2.000000e+002	0.000000e+000
10781250	-2.000000e+002	0.000000e+000	-9.434603e-002	-4.990476e+001	-2.000000e+002	0.000000e+000	-2.000000e+002	0.000000e+000
10937500	-2.000000e+002	0.000000e+000	-9.513693e-002	-5.062493e+001	-2.000000e+002	0.000000e+000	-2.000000e+002	0.000000e+000
11093750	-2.000000e+002	0.000000e+000	-9.607130e-002	-5.134405e+001	-2.000000e+002	0.000000e+000	-2.000000e+002	0.000000e+000
11250000	-2.000000e+002	0.000000e+000	-9.622410e-002	-5.206006e+001	-2.000000e+002	0.000000e+000	-2.000000e+002	0.000000e+000
11406250	-2.000000e+002	0.000000e+000	-9.698973e-002	-5.277902e+001	-2.000000e+002	0.000000e+000	-2.000000e+002	0.000000e+000
11562500	-2.000000e+002	0.000000e+000	-9.806826e-002	-5.349674e+001	-2.000000e+002	0.000000e+000	-2.000000e+002	0.000000e+000
11718750	-2.000000e+002	0.000000e+000	-9.893932e-002	-5.421627e+001	-2.000000e+002	0.000000e+000	-2.000000e+002	0.000000e+000
11875000	-2.000000e+002	0.000000e+000	-9.972644e-002	-5.493584e+001	-2.000000e+002	0.000000e+000	-2.000000e+002	0.000000e+000
12031250	-2.000000e+002	0.000000e+000	-1.002996e-001	-5.565559e+001	-2.000000e+002	0.000000e+000	-2.000000e+002	0.000000e+000
12187500	-2.000000e+002	0.000000e+000	-1.012228e-001	-5.637256e+001	-2.000000e+002	0.000000e+000	-2.000000e+002	0.000000e+000
12343750	-2.000000e+002	0.000000e+000	-1.019360e-001	-5.708838e+001	-2.000000e+002	0.000000e+000	-2.000000e+002	0.000000e+000
12500000	-2.000000e+002	0.000000e+000	-1.024770e-001	-5.780325e+001	-2.000000e+002	0.000000e+000	-2.000000e+002	0.000000e+000
12656250	-2.000000e+002	0.000000e+000	-1.038954e-001	-5.852291e+001	-2.000000e+002	0.000000e+000	-2.000000e+002	0.000000e+000
12812500	-2.000000e+002	0.000000e+000	-1.046976e-001	-5.924728e+001	-2.000000e+002	0.000000e+000	-2.000000e+002	0.000000e+000
12968750	-2.000000e+002	0.000000e+000	-1.065165e-001	-5.996714e+001	-2.000000e+002	0.000000e+000	-2.000000e+002	0.000000e+000
13125000	-2.000000e+002	0.000000e+000	-1.086294e-001	-6.067058e+001	-2.000000e+002	0.000000e+000	-2.000000e+002	0.000000e+000
13281250	-2.000000e+002	0.000000e+000	-1.065646e-001	-6.138444e+001	-2.000000e+002	0.000000e+000	-2.000000e+002	0.000000e+000
13437500	-2.000000e+002	0.000000e+000	-1.075603e-001	-6.211474e+001	-2.000000e+002	0.000000e+000	-2.000000e+002	0.000000e+000
13593750	-2.000000e+002	0.000000e+000	-1.079818e-001	-6.283659e+001	-2.000000e+002	0.000000e+000	-2.000000e+002	0.000000e+000
13750000	-2.000000e+002	0.000000e+000	-1.100361e-001	-6.355040e+001	-2.000000e+002	0.000000e+000	-2.000000e+002	0.000000e+000
13906250	-2.000000e+002	0.000000e+000	-1.095226e-001	-6.426402e+001	-2.000000e+002	0.000000e+000	-2.000000e+002	0.000000e+000
14062500	-2.000000e+002	0.000000e+000	-1.099987e-001	-6.497862e+001	-2.000000e+002	0.000000e+000	-2.000000e+002	0.000000e+000
14218750	-2.000000e+002	0.000000e+000	-1.115925e-001	-6.569632e+001	-2.000000e+002	0.000000e+000	-2.000000e+002	0.000000e+000
14375000	-2.000000e+002	0.000000e+000	-1.128823e-001	-6.641395e+001	-2.000000e+002	0.000000e+000	-2.000000e+002	0.000000e+000
14531250	-2.000000e+002	0.000000e+000	-1.138955e-001	-6.712856e+001	-2.000000e+002	0.000000e+000	-2.000000e+002	0.000000e+000
14687500	-2.000000e+002	0.000000e+000	-1.142797e-001	-6.784157e+001	-2.000000e+002	0.000000e+000	-2.000000e+002	0.000000e+000
14843750	-2.000000e+002	0.000000e+000	-1.155159e-001	-6.856103e+001	-2.000000e+002	0.000000e+000	-2.000000e+002	0.000000e+000
15000000	-2.000000e+002	0.000000e+000	-1.161475e-001	-6.927539e+001	-2.000000e+002	0.000000e+000	-2.000000e+002	0.000000e+000
15156250	-2.000000e+002	0.000000e+000	-1.161807e-001	-6.999114e+001	-2.000000e+002	0.000000e+000	-2.000000e+002	0.000000e+000
15312500	-2.000000e+002	0.000000e+000	-1.163313e-001	-7.070831e+001	-2.000000e+002	0.000000e+000	-2.000000e+002	0.000000e+000
15468750	-2.000000e+002	0.000000e+000	-1.163426e-001	-7.143016e+001	-2.000000e+002	0.000000e+000	-2.000000e+002	0.000000e+000
15625000	-2.000000e+002	0.000000e+000	-1.175513e-001	-7.215005e+001	-2.000000e+002	0.000000e+000	-2.000000e+002	0.000000e+000
15781250	-2.000000e+002	0.000000e+000	-1.186334e-001	-7.286319e+001	-2.000000e+002	0.000000e+000	-2.000000e+002	0.000000e+000
15937500	-2.000000e+002	0.000000e+000	-1.202338e-001	-7.358504e+001	-2.000000e+002	0.000000e+000	-2.000000e+002	0.000000e+000
16093750	-2.000000e+002	0.000000e+000	-1.207113e-001	-7.430002e+001	-2.000000e+002	0.000000e+000	-2.000000e+002	0.000000e+000
16250000	-2.000000e+002	0.000000e+000	-1.212265e-001	-7.501909e+001	-2.000000e+002	0.000000e+000	-2.000000e+002	0.000000e+000
16406250	-2.000000e+002	0.000000e+000	-1.220266e-001	-7.573688e+001	-2.000000e+002	0.000000e+000	-2.000000e+002	0.000000e+000
16562500	-2.000000e+002	0.000000e+000	-1.226204e-001	-7.645391e+001	-2.000000e+002	0.000000e+000	-2.000000e+002	0.000000e+000
16718750	-2.000000e+002	0.000000e+000	-1.226129e-001	-7.717135e+001	-2.000000e+002	0.000000e+000	-2.000000e+002	0.000000e+000
16875000	-2.000000e+002	0.000000e+000	-1.232712e-001	-7.788781e+001	-2.000000e+002	0.000000e+000	-2.000000e+002	0.000000e+000
17031250	-2.000000e+002	0.000000e+000	-1.237193e-001	-7.860034e+001	-2.000000e+002	0.000000e+000	-2.000000e+002	0.000000e+000
17187500	-2.000000e+002	0.000000e+000	-1.242403e-001	-7.931655e+001	-2.000000e+002	0.000000e+000	-2.000000e+002	0.000000e+000
17343750	-2.000000e+002	0.000000e+000	-1.249586e-001	-8.003014e+001	-2.000000e+002	0.000000e+000	-2.000000e+002	0.000000e+000
17500000	-2.000000e+002	0.000000e+000	-1.253352e-001	-8.074600e+001	-2.000000e+002	0.000000e+000	-2.000000e+002	0.000000e+000
17656250	-2.000000e+002	0.000000e+000	-1.259825e-001	-8.146306e+001	-2.000000e+002	0.000000e+000	-2.000000e+002	0.000000e+000
17812500	-2.000000e+002	0.000000e+000	-1.263643e-001	-8.218076e+001	-2.000000e+002	0.000000e+000	-2.000000e+002	0.000000e+000
17968750	-2.000000e+002	0.000000e+000	-1.274138e-001	-8.289665e+001	-2.000000e+002	0.000000e+000	-2.000000e+002	0.000000e+000
18125000	-2.000000e+002	0.000000e+000	-1.281067e-001	-8.361566e+001	-2.000000e+002	0.000000e+000	-2.000000e+002	0.000000e+000
18281250	-2.000000e+002	0.000000e+000	-1.287619e-001	-8.433187e+001	-2.000000e+002	0.000000e+000	-2.000000e+002	0.000000e+000
18437500	-2.000000e+002	0.000000e+000	-1.296542e-001	-8.504955e+001	-2.000000e+002	0.000000e+000	-2.000000e+002	0.000000e+000
18593750	-2.000000e+002	0.000000e+000	-1.299969e-001	-8.576865e+001	-2.000000e+002	0.000000e+000	-2.000000e+002	0.000000e+000
18750000	-2.000000e+002	0.000000e+000	-1.303384e-001	-8.648673e+001	-2.000000e+002	0.000000e+000	-2.000000e+002	0.000000e+000
18906250	-2.000000e+002	0.000000e+000	-1.311043e-001	-8.720198e+001	-2.000000e+002	0.000000e+000	-2.000000e+002	0.000000e+000
19062500	-2.000000e+002	0.000000e+000	-1.318981e-001	-8.792195e+001	-2.000000e+002	0.000000e+000	-2.000000e+002	0.000000e+000
19218750	-2.000000e+002	0.000000e+000	-1.325747e-001	-8.863789e+001	-2.000000e+002	0.000000e+000	-2.000000e+002	0.000000e+000
19375000	-2.000000e+002	0.000000e+000	-1.329031e-001	-8.935709e+001	-2.000000e+002	0.000000e+000	-2.000000e+002	0.000000e+000
19531250	-2.000000e+002	0.000000e+000	-1.337337e-001	-9.007102e+001	-2.000000e+002	0.000000e+000	-2.000000e+002	0.000000e+000
19687500	-2.000000e+002	0.000000e+000	-1.338890e-001	-9.078641e+001	-2.000000e+002	0.000000e+000	-2.000000e+002	0.000000e+000
19843750	-2.000000e+002	0.000000e+000	-1.345717e-001	-9.150668e+001	-2.000000e+002	0.000000e+000	-2.000000e+002	0.000000e+000
20000000	-2.000000e+002	0.000000e+000	-1.353612e-001	-9.222403e+001	-2.000000e+002	0.000000e+000	-2.000000e+002	0.000000e+000
20156250	-2.000000e+002	0.000000e+000	-1.354851e-001	-9.293208e+001	-2.000000e+002	0.000000e+000	-2.000000e+002	0.000000e+000
20312500	-2.000000e+002	0.000000e+000	-1.363509e-001	-9.365081e+001	-2.000000e+002	0.000000e+000	-2.000000e+002	0.000000e+000
20468750	-2.000000e+002	0.000000e+000	-1.366935e-001	-9.436749e+001	-2.000000e+002	0.000000e+000	-2.000000e+002	0.000000e+000
20625000	-2.000000e+002	0.000000e+000	-1.375856e-001	-9.508336e+001	-2.000000e+002	0.000000e+000	-2.000000e+002	0.000000e+000
20781250	-2.000000e+002	0.000000e+000	-1.377072e-001	-9.580114e+001	-2.000000e+002	0.000000e+000	-2.000000e+002	0.000000e+000
20937500	-2.000000e+002	0.000000e+000	-1.386204e-001	-9.651887e+001	-2.000000e+002	0.000000e+000	-2.000000e+002	0.000000e+000
21093750	-2.000000e+002	0.000000e+000	-1.390223e-001	-9.723473e+001	-2.000000e+002	0.000000e+000	-2.000000e+002	0.000000e+000
21250000	-2.000000e+002	0.000000e+000	-1.398808e-001	-9.795321e+001	-2.000000e+002	0.000000e+000	-2.000000e+002	0.000000e+000
21406250	-2.000000e+002	0.000000e+000	-1.402108e-001	-9.866979e+001	-2.000000e+002	0.000000e+000	-2.000000e+002	0.000000e+000
21562500	-2.000000e+002	0.000000e+000	-1.406335e-001	-9.938595e+001	-2.000000e+002	0.000000e+000	-2.000000e+002	0.000000e+000
21718750	-2.000000e+002	0.000000e+000	-1.414179e-001	-1.001035e+002	-2.000000e+002	0.000000e+000	-2.000000e+002	0.000000e+000
21875000	-2.000000e+002	0.000000e+000	-1.420555e-001	-1.008216e+002	-2.000000e+002	0.000000e+000	-2.000000e+002	0.000000e+000
22031250	-2.000000e+002	0.000000e+000	-1.428732e-001	-1.015382e+002	-2.000000e+002	0.000000e+000	-2.000000e+002	0.000000e+000
22187500	-2.000000e+002	0.000000e+000	-1.433916e-001	-1.022564e+002	-2.000000e+002	0.000000e+000	-2.000000e+002	0.000000e+000
22343750	-2.000000e+002	0.000000e+000	-1.439083e-001	-1.029736e+002	-2.000000e+002	0.000000e+000	-2.000000e+002	0.000000e+000
22500000	-2.000000e+002	0.000000e+000	-1.446972e-001	-1.036904e+002	-2.000000e+002	0.000000e+000	-2.000000e+002	0.000000e+000
22656250	-2.000000e+002	0.000000e+000	-1.452985e-001	-1.044057e+002	-2.000000e+002	0.000000e+000	-2.000000e+002	0.000000e+000
22812500	-2.000000e+002	0.000000e+000	-1.460371e-001	-1.051223e+002	-2.000000e+002	0.000000e+000	-2.000000e+002	0.000000e+000
22968750	-2.000000e+002	0.000000e+000	-1.467273e-001	-1.058395e+002	-2.000000e+002	0.000000e+000	-2.000000e+002	0.000000e+000
23125000	-2.000000e+002	0.000000e+000	-1.472543e-001	-1.065495e+002	-2.000000e+002	0.000000e+000	-2.000000e+002	0.000000e+000
23281250	-2.000000e+002	0.000000e+000	-1.478762e-001	-1.072676e+002	-2.000000e+002	0.000000e+000	-2.000000e+002	0.000000e+000
23437500	-2.000000e+002	0.000000e+000	-1.479700e-001	-1.079845e+002	-2.000000e+002	0.000000e+000	-2.000000e+002	0.000000e+000
23593750	-2.000000e+002	0.000000e+000	-1.487609e-001	-1.086998e+002	-2.000000e+002	0.000000e+000	-2.000000e+002	0.000000e+000
23750000	-2.000000e+002	0.000000e+000	-1.494384e-001	-1.094161e+002	-2.000000e+002	0.000000e+000	-2.000000e+002	0.000000e+000
23906250	-2.000000e+002	0.000000e+000	-1.500590e-001	-1.101310e+002	-2.000000e+002	0.000000e+000	-2.000000e+002	0.000000e+000
24062500	-2.000000e+002	0.000000e+000	-1.503922e-001	-1.108445e+002	-2.000000e+002	0.000000e+000	-2.000000e+002	0.000000e+000
24218750	-2.000000e+002	0.000000e+000	-1.508194e-001	-1.115622e+002	-2.000000e+002	0.000000e+000	-2.000000e+002	0.000000e+000
24375000	-2.000000e+002	0.000000e+000	-1.513110e-001	-1.122771e+002	-2.000000e+002	0.000000e+000	-2.000000e+002	0.000000e+000
24531250	-2.000000e+002	0.000000e+000	-1.516460e-001	-1.129920e+002	-2.000000e+002	0.000000e+000	-2.000000e+002	0.000000e+000
24687500	-2.000000e+002	0.000000e+000	-1.521486e-001	-1.137101e+002	-2.000000e+002	0.000000e+000	-2.000000e+002	0.000000e+000
24843750	-2.000000e+002	0.000000e+000	-1.528705e-001	-1.144243e+002	-2.000000e+002	0.000000e+000	-2.000000e+002	0.000000e+000
25000000	-2.000000e+002	0.000000e+000	-1.532971e-001	-1.151430e+002	-2.000000e+002	0.000000e+000	-2.000000e+002	0.000000e+000
25156250	-2.000000e+002	0.000000e+000	-1.538563e-001	-1.158597e+002	-2.000000e+002	0.000000e+000	-2.000000e+002	0.000000e+000
25312500	-2.000000e+002	0.000000e+000	-1.544627e-001	-1.165776e+002	-2.000000e+002	0.000000e+000	-2.000000e+002	0.000000e+000
25468750	-2.000000e+002	0.000000e+000	-1.547469e-001	-1.172950e+002	-2.000000e+002	0.000000e+000	-2.000000e+002	0.000000e+000
25625000	-2.000000e+002	0.000000e+000	-1.554745e-001	-1.180107e+002	-2.000000e+002	0.000000e+000	-2.000000e+002	0.000000e+000
25781250	-2.000000e+002	0.000000e+000	-1.557413e-001	-1.187255e+002	-2.000000e+002	0.000000e+000	-2.000000e+002	0.000000e+000
25937500	-2.000000e+002	0.000000e+000	-1.562043e-001	-1.194427e+002	-2.000000e+002	0.000000e+000	-2.000000e+002	0.000000e+000
26093750	-2.000000e+002	0.000000e+000	-1.567883e-001	-1.201590e+002	-2.000000e+002	0.000000e+000	-2.000000e+002	0.000000e+000
26250000	-2.000000e+002	0.000000e+000	-1.572651e-001	-1.208755e+002	-2.000000e+002	0.000000e+000	-2.000000e+002	0.000000e+000
26406250	-2.000000e+002	0.000000e+000	-1.577691e-001	-1.215903e+002	-2.000000e+002	0.000000e+000	-2.000000e+002	0.000000e+000
26562500	-2.000000e+002	0.000000e+000	-1.581899e-001	-1.223067e+002	-2.000000e+002	0.000000e+000	-2.000000e+002	0.000000e+000
26718750	-2.000000e+002	0.000000e+000	-1.586940e-001	-1.230247e+002	-2.000000e+002	0.000000e+000	-2.000000e+002	0.000000e+000
26875000	-2.000000e+002	0.000000e+000	-1.588500e-001	-1.237394e+002	-2.000000e+002	0.000000e+000	-2.000000e+002	0.000000e+000
27031250	-2.000000e+002	0.000000e+000	-1.591866e-001	-1.244566e+002	-2.000000e+002	0.000000e+000	-2.000000e+002	0.000000e+000
27187500	-2.000000e+002	0.000000e+000	-1.596794e-001	-1.251719e+002	-2.000000e+002	0.000000e+000	-2.000000e+002	0.000000e+000
27343750	-2.000000e+002	0.000000e+000	-1.602344e-001	-1.258897e+002	-2.000000e+002	0.000000e+000	-2.000000e+002	0.000000e+000
27500000	-2.000000e+002	0.000000e+000	-1.606240e-001	-1.266046e+002	-2.000000e+002	0.000000e+000	-2.000000e+002	0.000000e+000
27656250	-2.000000e+002	0.000000e+000	-1.612774e-001	-1.273226e+002	-2.000000e+002	0.000000e+000	-2.000000e+002	0.000000e+000
27812500	-2.000000e+002	0.000000e+000	-1.616857e-001	-1.280384e+002	-2.000000e+002	0.000000e+000	-2.000000e+002	0.000000e+000
27968750	-2.000000e+002	0.000000e+000	-1.623240e-001	-1.287557e+002	-2.000000e+002	0.000000e+000	-2.000000e+002	0.000000e+000
28125000	-2.000000e+002	0.000000e+000	-1.625863e-001	-1.294717e+002	-2.000000e+002	0.000000e+000	-2.000000e+002	0.000000e+000
28281250	-2.000000e+002	0.000000e+000	-1.630579e-001	-1.301874e+002	-2.000000e+002	0.000000e+000	-2.000000e+002	0.000000e+000
28437500	-2.000000e+002	0.000000e+000	-1.634929e-001	-1.309046e+002	-2.000000e+002	0.000000e+000	-2.000000e+002	0.000000e+000
28593750	-2.000000e+002	0.000000e+000	-1.640621e-001	-1.316182e+002	-2.000000e+002	0.000000e+000	-2.000000e+002	0.000000e+000
28750000	-2.000000e+002	0.000000e+000	-1.645565e-001	-1.323364e+002	-2.000000e+002	0.000000e+000	-2.000000e+002	0.000000e+000
28906250	-2.000000e+002	0.000000e+000	-1.648917e-001	-1.330510e+002	-2.000000e+002	0.000000e+000	-2.000000e+002	0.000000e+000
29062500	-2.000000e+002	0.000000e+000	-1.653711e-001	-1.337647e+002	-2.000000e+002	0.000000e+000	-2.000000e+002	0.000000e+000
29218750	-2.000000e+002	0.000000e+000	-1.656703e-001	-1.344814e+002	-2.000000e+002	0.000000e+000	-2.000000e+002	0.000000e+000
29375000	-2.000000e+002	0.000000e+000	-1.661300e-001	-1.351983e+002	-2.000000e+002	0.000000e+000	-2.000000e+002	0.000000e+000
29531250	-2.000000e+002	0.000000e+000	-1.663919e-001	-1.359145e+002	-2.000000e+002	0.000000e+000	-2.000000e+002	0.000000e+000
29687500	-2.000000e+002	0.000000e+000	-1.668824e-001	-1.366328e+002	-2.000000e+002	0.000000e+000	-2.000000e+002	0.000000e+000
29843750	-2.000000e+002	0.000000e+000	-1.672127e-001	-1.373500e+002	-2.000000e+002	0.000000e+000	-2.000000e+002	0.000000e+000
30000000	-2.000000e+002	0.000000e+000	-1.680068e-001	-1.380671e+002	-2.000000e+002	0.000000e+000	-2.000000e+002	0.000000e+000
30156250	-2.000000e+002	0.000000e+000	-1.681473e-001	-1.387834e+002	-2.000000e+002	0.000000e+000	-2.000000e+002	0.000000e+000
30312500	-2.000000e+002	0.000000e+000	-1.688829e-001	-1.395014e+002	-2.000000e+002	0.000000e+000	-2.000000e+002	0.000000e+000
30468750	-2.000000e+002	0.000000e+000	-1.698006e-001	-1.402171e+002	-2.000000e+002	0.000000e+000	-2.000000e+002	0.000000e+000
30625000	-2.000000e+002	0.000000e+000	-1.702076e-001	-1.409331e+002	-2.000000e+002	0.000000e+000	-2.000000e+002	0.000000e+000
30781250	-2.000000e+002	0.000000e+000	-1.705595e-001	-1.416485e+002	-2.000000e+002	0.000000e+000	-2.000000e+002	0.000000e+000
30937500	-2.000000e+002	0.000000e+000	-1.709162e-001	-1.423642e+002	-2.000000e+002	0.000000e+000	-2.000000e+002	0.000000e+000
31093750	-2.000000e+002	0.000000e+000	-1.713165e-001	-1.430798e+002	-2.000000e+002	0.000000e+000	-2.000000e+002	0.000000e+000
31250000	-2.000000e+002	0.000000e+000	-1.719073e-001	-1.437969e+002	-2.000000e+002	0.000000e+000	-2.000000e+002	0.000000e+000
31406250	-2.000000e+002	0.000000e+000	-1.720037e-001	-1.445144e+002	-2.000000e+002	0.000000e+000	-2.000000e+002	0.000000e+000
31562500	-2.000000e+002	0.000000e+000	-1.726074e-001	-1.452301e+002	-2.000000e+002	0.000000e+000	-2.000000e+002	0.000000e+000
31718750	-2.000000e+002	0.000000e+000	-1.729400e-001	-1.459479e+002	-2.000000e+002	0.000000e+000	-2.000000e+002	0.000000e+000
31875000	-2.000000e+002	0.000000e+000	-1.738614e-001	-1.466648e+002	-2.000000e+002	0.000000e+000	-2.000000e+002	0.000000e+000
32031250	-2.000000e+002	0.000000e+000	-1.739338e-001	-1.473826e+002	-2.000000e+002	0.000000e+000	-2.000000e+002	0.000000e+000
32187500	-2.000000e+002	0.000000e+000	-1.745228e-001	-1.480989e+002	-2.000000e+002	0.000000e+000	-2.000000e+002	0.000000e+000
32343750	-2.000000e+002	0.000000e+000	-1.748037e-001	-1.488151e+002	-2.000000e+002	0.000000e+000	-2.000000e+002	0.000000e+000
32500000	-2.000000e+002	0.000000e+000	-1.755542e-001	-1.495321e+002	-2.000000e+002	0.000000e+000	-2.000000e+002	0.000000e+000
32656250	-2.000000e+002	0.000000e+000	-1.760548e-001	-1.502482e+002	-2.000000e+002	0.000000e+000	-2.000000e+002	0.000000e+000
32812500	-2.000000e+002	0.000000e+000	-1.763811e-001	-1.509644e+002	-2.000000e+002	0.000000e+000	-2.000000e+002	0.000000e+000
32968750	-2.000000e+002	0.000000e+000	-1.771698e-001	-1.516797e+002	-2.000000e+002	0.000000e+000	-2.000000e+002	0.000000e+000
33125000	-2.000000e+002	0.000000e+000	-1.775247e-001	-1.523972e+002	-2.000000e+002	0.000000e+000	-2.000000e+002	0.000000e+000
33281250	-2.000000e+002	0.000000e+000	-1.782807e-001	-1.531131e+002	-2.000000e+002	0.000000e+000	-2.000000e+002	0.000000e+000
33437500	-2.000000e+002	0.000000e+000	-1.787385e-001	-1.538307e+002	-2.000000e+002	0.000000e+000	-2.000000e+002	0.000000e+000
33593750	-2.000000e+002	0.000000e+000	-1.792437e-001	-1.545453e+002	-2.000000e+002	0.000000e+000	-2.000000e+002	0.000000e+000
33750000	-2.000000e+002	0.000000e+000	-1.796567e-001	-1.552612e+002	-2.000000e+002	0.000000e+000	-2.000000e+002	0.000000e+000
33906250	-2.000000e+002	0.000000e+000	-1.799856e-001	-1.559769e+002	-2.000000e+002	0.000000e+000	-2.000000e+002	0.000000e+000
