!Agilent Technologies,E5071C,MY46214392,A.11.36
!Date: Tue Jun 16 12:14:27 2026
!Data & Calibration Information:
!Freq	S11:SOLT1(ON)
!PortZ  Port1:50+j0
!Above PortZ is port z conversion or system Z0 setting when saving the data.
!When reading, reference impedance value at option line is always used.
# Hz S RI R 50
10000000	1.150929e-001	-9.869323e-001
10156250	9.256307e-002	-9.891468e-001
10312500	6.987983e-002	-9.906650e-001
10468750	4.733243e-002	-9.917565e-001
10625000	2.470326e-002	-9.924665e-001
10781250	1.984172e-003	-9.923725e-001
10937500	-2.055051e-002	-9.919532e-001
11093750	-4.319692e-002	-9.909422e-001
11250000	-6.586700e-002	-9.894850e-001
11406250	-8.837815e-002	-9.874623e-001
11562500	-1.109043e-001	-9.850486e-001
11718750	-1.333602e-001	-9.818927e-001
11875000	-1.555754e-001	-9.783534e-001
12031250	-1.779767e-001	-9.742914e-001
12187500	-2.000092e-001	-9.696380e-001
12343750	-2.220293e-001	-9.646789e-001
12500000	-2.439511e-001	-9.589476e-001
12656250	-2.658170e-001	-9.529105e-001
12812500	-2.872940e-001	-9.462787e-001
12968750	-3.087574e-001	-9.392074e-001
13125000	-3.298584e-001	-9.317493e-001
13281250	-3.511113e-001	-9.236104e-001
13437500	-3.720938e-001	-9.150398e-001
13593750	-3.925477e-001	-9.059255e-001
13750000	-4.132090e-001	-8.965757e-001
13906250	-4.334024e-001	-8.866067e-001
14062500	-4.534386e-001	-8.762235e-001
14218750	-4.732537e-001	-8.653475e-001
14375000	-4.926396e-001	-8.540080e-001
14531250	-5.119257e-001	-8.421275e-001
14687500	-5.308216e-001	-8.300949e-001
14843750	-5.495009e-001	-8.173919e-001
15000000	-5.678271e-001	-8.044391e-001
15156250	-5.858047e-001	-7.909294e-001
15312500	-6.036284e-001	-7.771501e-001
15468750	-6.209708e-001	-7.628894e-001
15625000	-6.379632e-001	-7.482054e-001
15781250	-6.547329e-001	-7.331901e-001
15937500	-6.710773e-001	-7.178137e-001
16093750	-6.870523e-001	-7.019386e-001
16250000	-7.027704e-001	-6.858439e-001
16406250	-7.179553e-001	-6.694773e-001
16562500	-7.328868e-001	-6.525965e-001
16718750	-7.472524e-001	-6.355279e-001
16875000	-7.613446e-001	-6.180641e-001
17031250	-7.750978e-001	-6.002611e-001
17187500	-7.882742e-001	-5.821566e-001
17343750	-8.010018e-001	-5.639192e-001
17500000	-8.134390e-001	-5.451367e-001
17656250	-8.254000e-001	-5.262502e-001
17812500	-8.369620e-001	-5.070985e-001
17968750	-8.479588e-001	-4.877584e-001
18125000	-8.586814e-001	-4.680431e-001
18281250	-8.688580e-001	-4.480935e-001
18437500	-8.785099e-001	-4.280493e-001
18593750	-8.877696e-001	-4.077328e-001
18750000	-8.965387e-001	-3.871322e-001
18906250	-9.048819e-001	-3.664855e-001
19062500	-9.126888e-001	-3.455177e-001
19218750	-9.199937e-001	-3.245731e-001
19375000	-9.268158e-001	-3.032934e-001
19531250	-9.331515e-001	-2.820483e-001
19687500	-9.391287e-001	-2.605221e-001
19843750	-9.444936e-001	-2.389135e-001
20000000	-9.493568e-001	-2.171990e-001
20156250	-9.536866e-001	-1.954326e-001
20312500	-9.576095e-001	-1.734635e-001
20468750	-9.609674e-001	-1.515579e-001
20625000	-9.638792e-001	-1.295156e-001
20781250	-9.663050e-001	-1.075078e-001
20937500	-9.681146e-001	-8.541403e-002
21093750	-9.694987e-001	-6.314879e-002
21250000	-9.703446e-001	-4.104098e-002
21406250	-9.707417e-001	-1.877807e-002
21562500	-9.706139e-001	3.306346e-003
21718750	-9.699778e-001	2.545460e-002
21875000	-9.688222e-001	4.759002e-002
22031250	-9.671548e-001	6.960532e-002
22187500	-9.650143e-001	9.170530e-002
22343750	-9.623106e-001	1.135490e-001
22500000	-9.592083e-001	1.355123e-001
22656250	-9.555506e-001	1.572494e-001
22812500	-9.514682e-001	1.789566e-001
22968750	-9.468260e-001	2.005938e-001
23125000	-9.417022e-001	2.220665e-001
23281250	-9.361365e-001	2.434345e-001
23437500	-9.300292e-001	2.646157e-001
23593750	-9.235302e-001	2.856131e-001
23750000	-9.165206e-001	3.065782e-001
23906250	-9.090424e-001	3.272834e-001
24062500	-9.011125e-001	3.478081e-001
24218750	-8.926172e-001	3.680853e-001
24375000	-8.838134e-001	3.881922e-001
24531250	-8.744633e-001	4.081631e-001
24687500	-8.646765e-001	4.278299e-001
24843750	-8.544894e-001	4.472156e-001
25000000	-8.438256e-001	4.665519e-001
25156250	-8.328223e-001	4.855141e-001
25312500	-8.213686e-001	5.041542e-001
25468750	-8.093841e-001	5.225906e-001
25625000	-7.970679e-001	5.408192e-001
25781250	-7.843267e-001	5.586792e-001
25937500	-7.712327e-001	5.761705e-001
26093750	-7.577018e-001	5.934992e-001
26250000	-7.438360e-001	6.104983e-001
26406250	-7.296712e-001	6.270732e-001
26562500	-7.149897e-001	6.433877e-001
26718750	-7.000179e-001	6.593456e-001
26875000	-6.846355e-001	6.749281e-001
27031250	-6.689882e-001	6.901409e-001
27187500	-6.529779e-001	7.050990e-001
27343750	-6.367041e-001	7.196750e-001
27500000	-6.200078e-001	7.337105e-001
27656250	-6.030634e-001	7.474092e-001
27812500	-5.858488e-001	7.607960e-001
27968750	-5.682554e-001	7.737741e-001
28125000	-5.504076e-001	7.863833e-001
28281250	-5.322754e-001	7.985130e-001
28437500	-5.139010e-001	8.102561e-001
28593750	-4.952160e-001	8.216095e-001
28750000	-4.764187e-001	8.324504e-001
28906250	-4.572576e-001	8.429601e-001
29062500	-4.379383e-001	8.529641e-001
29218750	-4.182611e-001	8.625458e-001
29375000	-3.985825e-001	8.716880e-001
29531250	-3.787008e-001	8.803558e-001
29687500	-3.584616e-001	8.886947e-001
29843750	-3.382938e-001	8.964284e-001
30000000	-3.177207e-001	9.037760e-001
30156250	-2.970785e-001	9.106301e-001
30312500	-2.763171e-001	9.169844e-001
30468750	-2.554614e-001	9.229152e-001
30625000	-2.343998e-001	9.283377e-001
30781250	-2.132244e-001	9.332444e-001
30937500	-1.920580e-001	9.378922e-001
31093750	-1.706798e-001	9.417632e-001
31250000	-1.491650e-001	9.453864e-001
31406250	-1.277259e-001	9.484268e-001
31562500	-1.062218e-001	9.508350e-001
31718750	-8.454392e-002	9.530260e-001
31875000	-6.304352e-002	9.545823e-001
32031250	-4.127353e-002	9.558034e-001
32187500	-1.962835e-002	9.563499e-001
32343750	1.955967e-003	9.565043e-001
32500000	2.367648e-002	9.560906e-001
32656250	4.546175e-002	9.552202e-001
32812500	6.699687e-002	9.539316e-001
32968750	8.856663e-002	9.521456e-001
33125000	1.102213e-001	9.498323e-001
33281250	1.315043e-001	9.470687e-001
33437500	1.529110e-001	9.438569e-001
33593750	1.742536e-001	9.400142e-001
33750000	1.955627e-001	9.357783e-001
33906250	2.166825e-001	9.311836e-001
34062500	2.377260e-001	9.259242e-001
34218750	2.586178e-001	9.203308e-001
34375000	2.793605e-001	9.141904e-001
34531250	2.999246e-001	9.076994e-001
34687500	3.203644e-001	9.005902e-001
34843750	3.407578e-001	8.930891e-001
35000000	3.608239e-001	8.852067e-001
35156250	3.807440e-001	8.767666e-001
35312500	4.005487e-001	8.679496e-001
35468750	4.200097e-001	8.586322e-001
35625000	4.394292e-001	8.488649e-001
35781250	4.584896e-001	8.387378e-001
35937500	4.774026e-001	8.282284e-001
36093750	4.959495e-001	8.172256e-001
36250000	5.143523e-001	8.058043e-001
36406250	5.323870e-001	7.939070e-001
36562500	5.502741e-001	7.817588e-001
36718750	5.677670e-001	7.690823e-001
36875000	5.851277e-001	7.560003e-001
37031250	6.020582e-001	7.425987e-001
37187500	6.186941e-001	7.289240e-001
37343750	6.350280e-001	7.147866e-001
37500000	6.510794e-001	7.002617e-001
37656250	6.667229e-001	6.854718e-001
37812500	6.820866e-001	6.702094e-001
37968750	6.970935e-001	6.546468e-001
38125000	7.117753e-001	6.386692e-001
38281250	7.261295e-001	6.225291e-001
38437500	7.400064e-001	6.060327e-001
38593750	7.535525e-001	5.891534e-001
38750000	7.667055e-001	5.719308e-001
38906250	7.794908e-001	5.545250e-001
39062500	7.918192e-001	5.367720e-001
39218750	8.038422e-001	5.188534e-001
39375000	8.154613e-001	5.005007e-001
39531250	8.264956e-001	4.820446e-001
39687500	8.372738e-001	4.632332e-001
39843750	8.476127e-001	4.442855e-001
40000000	8.575461e-001	4.250596e-001
40156250	8.668900e-001	4.055780e-001
40312500	8.759286e-001	3.858969e-001
40468750	8.845305e-001	3.659847e-001
40625000	8.925747e-001	3.460208e-001
40781250	9.003586e-001	3.257446e-001
40937500	9.074557e-001	3.053054e-001
41093750	9.141995e-001	2.847633e-001
41250000	9.204501e-001	2.641220e-001
41406250	9.261765e-001	2.432426e-001
41562500	9.316521e-001	2.222981e-001
41718750	9.364663e-001	2.012156e-001
41875000	9.407913e-001	1.799779e-001
42031250	9.447264e-001	1.587500e-001
42187500	9.481377e-001	1.373428e-001
42343750	9.510342e-001	1.159259e-001
42500000	9.535541e-001	9.437254e-002
42656250	9.555189e-001	7.284452e-002
42812500	9.569941e-001	5.123908e-002
42968750	9.579882e-001	2.960638e-002
43125000	9.584796e-001	7.937086e-003
43281250	9.584339e-001	-1.368461e-002
43437500	9.580017e-001	-3.530393e-002
43593750	9.570960e-001	-5.706150e-002
43750000	9.556626e-001	-7.864026e-002
43906250	9.536831e-001	-1.002080e-001
44062500	9.511754e-001	-1.217241e-001
44218750	9.483085e-001	-1.431697e-001
44375000	9.449069e-001	-1.646065e-001
44531250	9.410278e-001	-1.859036e-001
44687500	9.366033e-001	-2.070921e-001
44843750	9.317129e-001	-2.282486e-001
45000000	9.263767e-001	-2.492722e-001
45156250	9.206154e-001	-2.701682e-001
45312500	9.143953e-001	-2.909061e-001
45468750	9.075858e-001	-3.116081e-001
45625000	9.003933e-001	-3.320015e-001
45781250	8.927532e-001	-3.522552e-001
45937500	8.845687e-001	-3.723977e-001
46093750	8.759890e-001	-3.923466e-001
46250000	8.670154e-001	-4.120874e-001
46406250	8.574408e-001	-4.315103e-001
46562500	8.475699e-001	-4.508057e-001
46718750	8.372184e-001	-4.699106e-001
46875000	8.263787e-001	-4.887073e-001
47031250	8.151921e-001	-5.072323e-001
47187500	8.035325e-001	-5.255946e-001
47343750	7.914930e-001	-5.436482e-001
47500000	7.790603e-001	-5.614929e-001
47656250	7.661818e-001	-5.789754e-001
47812500	7.529061e-001	-5.962352e-001
47968750	7.393164e-001	-6.130675e-001
48125000	7.252019e-001	-6.297053e-001
48281250	7.108210e-001	-6.459362e-001
48437500	6.961099e-001	-6.618978e-001
48593750	6.809720e-001	-6.774253e-001
48750000	6.654066e-001	-6.926764e-001
48906250	6.497072e-001	-7.074446e-001
49062500	6.335146e-001	-7.220682e-001
49218750	6.170776e-001	-7.363042e-001
49375000	6.002230e-001	-7.500191e-001
49531250	5.831557e-001	-7.634378e-001
49687500	5.657020e-001	-7.764232e-001
49843750	5.479577e-001	-7.890771e-001
50000000	5.300595e-001	-8.012855e-001
50156250	5.117743e-001	-8.129405e-001
50312500	4.932680e-001	-8.244471e-001
50468750	4.744641e-001	-8.353320e-001
50625000	4.554527e-001	-8.458649e-001
50781250	4.361918e-001	-8.559562e-001
50937500	4.167092e-001	-8.656063e-001
51093750	3.969723e-001	-8.747827e-001
51250000	3.771268e-001	-8.835781e-001
51406250	3.569696e-001	-8.917960e-001
51562500	3.366787e-001	-8.996113e-001
51718750	3.163349e-001	-9.069873e-001
51875000	2.955593e-001	-9.138488e-001
52031250	2.749476e-001	-9.201963e-001
52187500	2.538743e-001	-9.262374e-001
52343750	2.328882e-001	-9.318025e-001
52500000	2.117555e-001	-9.367523e-001
52656250	1.903757e-001	-9.412335e-001
52812500	1.690848e-001	-9.452515e-001
52968750	1.475860e-001	-9.487602e-001
53125000	1.261534e-001	-9.518970e-001
53281250	1.044866e-001	-9.543948e-001
53437500	8.289861e-002	-9.564587e-001
53593750	6.118216e-002	-9.579883e-001
53750000	3.949940e-002	-9.591200e-001
53906250	1.776048e-002	-9.597036e-001
54062500	-4.050089e-003	-9.598182e-001
54218750	-2.582521e-002	-9.594664e-001
54375000	-4.743343e-002	-9.586245e-001
54531250	-6.920701e-002	-9.569968e-001
54687500	-9.089795e-002	-9.552720e-001
54843750	-1.124626e-001	-9.527350e-001
55000000	-1.339342e-001	-9.498513e-001
55156250	-1.554305e-001	-9.465610e-001
55312500	-1.769145e-001	-9.426434e-001
55468750	-1.981894e-001	-9.383331e-001
55625000	-2.192898e-001	-9.335383e-001
55781250	-2.404403e-001	-9.283194e-001
55937500	-2.613142e-001	-9.224745e-001
56093750	-2.820853e-001	-9.161254e-001
56250000	-3.028112e-001	-9.094281e-001
56406250	-3.232474e-001	-9.021832e-001
56562500	-3.435291e-001	-8.945505e-001
56718750	-3.636878e-001	-8.864966e-001
56875000	-3.837233e-001	-8.777979e-001
57031250	-4.034414e-001	-8.687531e-001
57187500	-4.228890e-001	-8.593592e-001
57343750	-4.422882e-001	-8.493052e-001
57500000	-4.614063e-001	-8.390936e-001
57656250	-4.802263e-001	-8.282798e-001
57812500	-4.988009e-001	-8.171202e-001
57968750	-5.170797e-001	-8.053581e-001
58125000	-5.351587e-001	-7.933183e-001
58281250	-5.529220e-001	-7.808819e-001
58437500	-5.703677e-001	-7.680719e-001
58593750	-5.875708e-001	-7.547602e-001
58750000	-6.044614e-001	-7.411611e-001
58906250	-6.210044e-001	-7.271116e-001
59062500	-6.372778e-001	-7.127755e-001
59218750	-6.530891e-001	-6.979838e-001
59375000	-6.687055e-001	-6.829179e-001
59531250	-6.838768e-001	-6.674796e-001
59687500	-6.987738e-001	-6.516423e-001
59843750	-7.131470e-001	-6.355229e-001
60000000	-7.273665e-001	-6.191880e-001
60156250	-7.410378e-001	-6.023718e-001
60312500	-7.543962e-001	-5.853239e-001
60468750	-7.672582e-001	-5.679015e-001
60625000	-7.798555e-001	-5.503293e-001
60781250	-7.919981e-001	-5.323485e-001
60937500	-8.037285e-001	-5.141927e-001
61093750	-8.150631e-001	-4.956839e-001
61250000	-8.259550e-001	-4.770963e-001
61406250	-8.364433e-001	-4.580471e-001
61562500	-8.464296e-001	-4.388646e-001
61718750	-8.559123e-001	-4.194629e-001
61875000	-8.650713e-001	-3.998164e-001
62031250	-8.737434e-001	-3.800747e-001
62187500	-8.820537e-001	-3.601279e-001
62343750	-8.897728e-001	-3.399483e-001
62500000	-8.971460e-001	-3.196272e-001
62656250	-9.039447e-001	-2.990718e-001
62812500	-9.103135e-001	-2.784501e-001
62968750	-9.161944e-001	-2.576894e-001
63125000	-9.216487e-001	-2.368307e-001
63281250	-9.266157e-001	-2.158045e-001
63437500	-9.310747e-001	-1.946436e-001
63593750	-9.349952e-001	-1.734525e-001
63750000	-9.385798e-001	-1.521682e-001
63906250	-9.416390e-001	-1.307593e-001
64062500	-9.441707e-001	-1.093792e-001
64218750	-9.462110e-001	-8.792564e-002
64375000	-9.477466e-001	-6.640202e-002
64531250	-9.487722e-001	-4.491524e-002
64687500	-9.494211e-001	-2.337873e-002
64843750	-9.494971e-001	-1.784763e-003
65000000	-9.491391e-001	1.973112e-002
65156250	-9.482670e-001	4.124440e-002
65312500	-9.468845e-001	6.278110e-002
65468750	-9.450336e-001	8.420446e-002
65625000	-9.426978e-001	1.055973e-001
65781250	-9.398949e-001	1.269898e-001
65937500	-9.365383e-001	1.481898e-001
66093750	-9.327893e-001	1.693532e-001
66250000	-9.285352e-001	1.904383e-001
66406250	-9.237910e-001	2.114183e-001
66562500	-9.185625e-001	2.322089e-001
66718750	-9.129259e-001	2.529958e-001
66875000	-9.067454e-001	2.736168e-001
67031250	-9.001471e-001	2.940040e-001
67187500	-8.929922e-001	3.143222e-001
67343750	-8.855609e-001	3.344834e-001
67500000	-8.775364e-001	3.543715e-001
67656250	-8.691521e-001	3.740786e-001
67812500	-8.602637e-001	3.936608e-001
67968750	-8.509984e-001	4.130016e-001
68125000	-8.413814e-001	4.318858e-001
68281250	-8.311565e-001	4.507982e-001
68437500	-8.206278e-001	4.694806e-001
68593750	-8.095590e-001	4.878430e-001
68750000	-7.981625e-001	5.059868e-001
68906250	-7.863477e-001	5.239327e-001
69062500	-7.741149e-001	5.415307e-001
69218750	-7.615221e-001	5.588977e-001
69375000	-7.485830e-001	5.758561e-001
69531250	-7.351484e-001	5.925717e-001
69687500	-7.214263e-001	6.089822e-001
69843750	-7.073023e-001	6.251287e-001
70000000	-6.927955e-001	6.409497e-001
70156250	-6.780175e-001	6.563614e-001
70312500	-6.627987e-001	6.715490e-001
70468750	-6.473620e-001	6.862277e-001
70625000	-6.315153e-001	7.006145e-001
70781250	-6.153470e-001	7.147232e-001
70937500	-5.988881e-001	7.284060e-001
71093750	-5.822072e-001	7.416421e-001
71250000	-5.651133e-001	7.545191e-001
71406250	-5.477782e-001	7.671019e-001
71562500	-5.301602e-001	7.791935e-001
71718750	-5.122841e-001	7.908810e-001
71875000	-4.940912e-001	8.022256e-001
72031250	-4.758444e-001	8.131365e-001
72187500	-4.571266e-001	8.236280e-001
72343750	-4.382757e-001	8.337444e-001
72500000	-4.192438e-001	8.432681e-001
72656250	-3.999159e-001	8.524572e-001
72812500	-3.804147e-001	8.612913e-001
72968750	-3.607251e-001	8.695309e-001
73125000	-3.408707e-001	8.774382e-001
73281250	-3.208417e-001	8.849122e-001
73437500	-3.007483e-001	8.917454e-001
73593750	-2.804050e-001	8.982666e-001
73750000	-2.599154e-001	9.043922e-001
73906250	-2.393212e-001	9.099024e-001
74062500	-2.186433e-001	9.150906e-001
74218750	-1.977821e-001	9.196428e-001
74375000	-1.768943e-001	9.238308e-001
74531250	-1.558899e-001	9.275710e-001
74687500	-1.347385e-001	9.307776e-001
74843750	-1.136557e-001	9.335479e-001
75000000	-9.233882e-002	9.357773e-001
75156250	-7.114750e-002	9.375451e-001
75312500	-4.986006e-002	9.388815e-001
75468750	-2.851722e-002	9.396836e-001
75625000	-7.242059e-003	9.400546e-001
75781250	1.410235e-002	9.398418e-001
75937500	3.527288e-002	9.393699e-001
76093750	5.665014e-002	9.382611e-001
76250000	7.791533e-002	9.365967e-001
76406250	9.906360e-002	9.345598e-001
76562500	1.202177e-001	9.320754e-001
76718750	1.413366e-001	9.289939e-001
76875000	1.623695e-001	9.255352e-001
77031250	1.832943e-001	9.214782e-001
77187500	2.041633e-001	9.171278e-001
77343750	2.248918e-001	9.122102e-001
77500000	2.455411e-001	9.068999e-001
77656250	2.660912e-001	9.010619e-001
77812500	2.863868e-001	8.946621e-001
77968750	3.066142e-001	8.880204e-001
78125000	3.266060e-001	8.808631e-001
78281250	3.464921e-001	8.731688e-001
78437500	3.661445e-001	8.650652e-001
78593750	3.856295e-001	8.565900e-001
78750000	4.050234e-001	8.475075e-001
78906250	4.241846e-001	8.382468e-001
79062500	4.430345e-001	8.283084e-001
79218750	4.617686e-001	8.180591e-001
79375000	4.800351e-001	8.074075e-001
79531250	4.983071e-001	7.962844e-001
79687500	5.162435e-001	7.848095e-001
79843750	5.338793e-001	7.728362e-001
80000000	5.512092e-001	7.605855e-001
80156250	5.684280e-001	7.478381e-001
80312500	5.851951e-001	7.348531e-001
80468750	6.016838e-001	7.213689e-001
80625000	6.179156e-001	7.076151e-001
80781250	6.338565e-001	6.934412e-001
80937500	6.493105e-001	6.788465e-001
81093750	6.646120e-001	6.639072e-001
81250000	6.795974e-001	6.487500e-001
81406250	6.940271e-001	6.331691e-001
81562500	7.082509e-001	6.173539e-001
81718750	7.221430e-001	6.011041e-001
81875000	7.355800e-001	5.846248e-001
82031250	7.485900e-001	5.678520e-001
82187500	7.614457e-001	5.507042e-001
82343750	7.736532e-001	5.333207e-001
82500000	7.856277e-001	5.156462e-001
82656250	7.970835e-001	4.977467e-001
82812500	8.082197e-001	4.795626e-001
82968750	8.189296e-001	4.610580e-001
83125000	8.292279e-001	4.424731e-001
83281250	8.390605e-001	4.235759e-001
83437500	8.484683e-001	4.044686e-001
83593750	8.574978e-001	3.850664e-001
83750000	8.660602e-001	3.656806e-001
83906250	8.741747e-001	3.459090e-001
84062500	8.818457e-001	3.260251e-001
84218750	8.890661e-001	3.059242e-001
84375000	8.957249e-001	2.857175e-001
84531250	9.020420e-001	2.654137e-001
84687500	9.078841e-001	2.448787e-001
84843750	9.132174e-001	2.242397e-001
85000000	9.181569e-001	2.035596e-001
85156250	9.225588e-001	1.826603e-001
85312500	9.265213e-001	1.617500e-001
85468750	9.300021e-001	1.406978e-001
85625000	9.330893e-001	1.195569e-001
85781250	9.355741e-001	9.834040e-002
85937500	9.375822e-001	7.717638e-002
86093750	9.392101e-001	5.588618e-002
86250000	9.403011e-001	3.463727e-002
86406250	9.408777e-001	1.323139e-002
86562500	9.410081e-001	-8.140304e-003
86718750	9.405958e-001	-2.947577e-002
86875000	9.397061e-001	-5.075629e-002
87031250	9.384550e-001	-7.207554e-002
87187500	9.366290e-001	-9.335279e-002
87343750	9.342967e-001	-1.145639e-001
87500000	9.315033e-001	-1.356960e-001
87656250	9.282888e-001	-1.568220e-001
87812500	9.245191e-001	-1.777713e-001
87968750	9.202411e-001	-1.987472e-001
88125000	9.155885e-001	-2.195801e-001
88281250	9.104449e-001	-2.402791e-001
88437500	9.048518e-001	-2.609140e-001
88593750	8.987175e-001	-2.813041e-001
