!Agilent Technologies,E5071C,MY46214392,A.11.36
!Date: Tue Jun 16 09:51:32 2026
!Data & Calibration Information:
!Freq	S11:SOLT1(ON)
!PortZ  Port1:50+j0
!Above PortZ is port z conversion or system Z0 setting when saving the data.
!When reading, reference impedance value at option line is always used.
# Hz S RI R 50
10000000	-9.862096e-001	1.390745e-001
10156250	-9.859235e-001	1.411918e-001
10312500	-9.855952e-001	1.433006e-001
10468750	-9.853207e-001	1.452934e-001
10625000	-9.850538e-001	1.472835e-001
10781250	-9.847092e-001	1.493201e-001
10937500	-9.843527e-001	1.513628e-001
11093750	-9.840173e-001	1.536016e-001
11250000	-9.835295e-001	1.558146e-001
11406250	-9.831782e-001	1.579446e-001
11562500	-9.828204e-001	1.600714e-001
11718750	-9.826721e-001	1.619536e-001
11875000	-9.824672e-001	1.638537e-001
12031250	-9.819170e-001	1.660517e-001
12187500	-9.814776e-001	1.681930e-001
12343750	-9.811850e-001	1.702992e-001
12500000	-9.809760e-001	1.725807e-001
12656250	-9.802208e-001	1.745925e-001
12812500	-9.797010e-001	1.765878e-001
12968750	-9.793472e-001	1.787794e-001
13125000	-9.788683e-001	1.808837e-001
13281250	-9.784512e-001	1.829712e-001
13437500	-9.778975e-001	1.851136e-001
13593750	-9.777199e-001	1.871961e-001
13750000	-9.773481e-001	1.892989e-001
13906250	-9.767338e-001	1.913040e-001
14062500	-9.761277e-001	1.933794e-001
14218750	-9.758662e-001	1.954516e-001
14375000	-9.754854e-001	1.974967e-001
14531250	-9.749354e-001	1.997612e-001
14687500	-9.744246e-001	2.018646e-001
14843750	-9.738857e-001	2.038294e-001
15000000	-9.733940e-001	2.057325e-001
15156250	-9.731305e-001	2.079607e-001
15312500	-9.728482e-001	2.101103e-001
15468750	-9.722767e-001	2.121222e-001
15625000	-9.716982e-001	2.142396e-001
15781250	-9.711416e-001	2.164323e-001
15937500	-9.706334e-001	2.185412e-001
16093750	-9.702595e-001	2.204570e-001
16250000	-9.698065e-001	2.224031e-001
16406250	-9.691032e-001	2.245966e-001
16562500	-9.684944e-001	2.266465e-001
16718750	-9.681163e-001	2.286450e-001
16875000	-9.675940e-001	2.305864e-001
17031250	-9.671398e-001	2.328061e-001
17187500	-9.666778e-001	2.350698e-001
17343750	-9.661916e-001	2.371434e-001
17500000	-9.657068e-001	2.391481e-001
17656250	-9.651628e-001	2.410257e-001
17812500	-9.646173e-001	2.429277e-001
17968750	-9.640682e-001	2.450698e-001
18125000	-9.634976e-001	2.471774e-001
18281250	-9.628215e-001	2.491677e-001
18437500	-9.621509e-001	2.511064e-001
18593750	-9.615856e-001	2.532336e-001
18750000	-9.610426e-001	2.553226e-001
18906250	-9.604635e-001	2.576316e-001
19062500	-9.599179e-001	2.598696e-001
19218750	-9.593075e-001	2.618179e-001
19375000	-9.586836e-001	2.637856e-001
19531250	-9.581514e-001	2.657193e-001
19687500	-9.575608e-001	2.676510e-001
19843750	-9.569902e-001	2.698500e-001
20000000	-9.564310e-001	2.720181e-001
20156250	-9.557690e-001	2.739275e-001
20312500	-9.551728e-001	2.759244e-001
20468750	-9.545483e-001	2.779308e-001
20625000	-9.539062e-001	2.798164e-001
20781250	-9.532633e-001	2.819282e-001
20937500	-9.526631e-001	2.839903e-001
21093750	-9.519910e-001	2.860000e-001
21250000	-9.513648e-001	2.880863e-001
21406250	-9.506859e-001	2.900532e-001
21562500	-9.499758e-001	2.919509e-001
21718750	-9.492816e-001	2.941113e-001
21875000	-9.487034e-001	2.961770e-001
22031250	-9.481063e-001	2.982461e-001
22187500	-9.475456e-001	3.002646e-001
22343750	-9.468659e-001	3.021074e-001
22500000	-9.460958e-001	3.040389e-001
22656250	-9.453954e-001	3.060898e-001
22812500	-9.447072e-001	3.081605e-001
22968750	-9.439953e-001	3.103125e-001
23125000	-9.433418e-001	3.123529e-001
23281250	-9.428269e-001	3.143386e-001
23437500	-9.421907e-001	3.162497e-001
23593750	-9.412519e-001	3.183153e-001
23750000	-9.404010e-001	3.204280e-001
23906250	-9.397576e-001	3.223224e-001
24062500	-9.391695e-001	3.242621e-001
24218750	-9.386076e-001	3.262663e-001
24375000	-9.379827e-001	3.283329e-001
24531250	-9.372811e-001	3.304489e-001
24687500	-9.365971e-001	3.325135e-001
24843750	-9.357320e-001	3.344070e-001
25000000	-9.349230e-001	3.363619e-001
25156250	-9.341323e-001	3.382661e-001
25312500	-9.333977e-001	3.401586e-001
25468750	-9.325687e-001	3.421119e-001
25625000	-9.318360e-001	3.440874e-001
25781250	-9.310270e-001	3.461642e-001
25937500	-9.302937e-001	3.482368e-001
26093750	-9.296188e-001	3.502920e-001
26250000	-9.289165e-001	3.522994e-001
26406250	-9.281541e-001	3.541768e-001
26562500	-9.273651e-001	3.560720e-001
26718750	-9.265864e-001	3.579320e-001
26875000	-9.258353e-001	3.598487e-001
27031250	-9.249405e-001	3.618623e-001
27187500	-9.241098e-001	3.638650e-001
27343750	-9.233059e-001	3.657268e-001
27500000	-9.225012e-001	3.677101e-001
27656250	-9.217881e-001	3.697836e-001
27812500	-9.210117e-001	3.719203e-001
27968750	-9.201325e-001	3.737216e-001
28125000	-9.191900e-001	3.755950e-001
28281250	-9.184611e-001	3.775231e-001
28437500	-9.177112e-001	3.794859e-001
28593750	-9.167476e-001	3.813858e-001
28750000	-9.158831e-001	3.833964e-001
28906250	-9.151719e-001	3.853267e-001
29062500	-9.143353e-001	3.873682e-001
29218750	-9.137300e-001	3.893167e-001
29375000	-9.128999e-001	3.912091e-001
29531250	-9.118803e-001	3.931045e-001
29687500	-9.109067e-001	3.949475e-001
29843750	-9.100930e-001	3.968861e-001
30000000	-9.092344e-001	3.989171e-001
30156250	-9.084034e-001	4.008638e-001
30312500	-9.075128e-001	4.028464e-001
30468750	-9.067110e-001	4.047739e-001
30625000	-9.058459e-001	4.067123e-001
30781250	-9.048787e-001	4.086279e-001
30937500	-9.039651e-001	4.104601e-001
31093750	-9.028439e-001	4.122981e-001
31250000	-9.017602e-001	4.141371e-001
31406250	-9.010196e-001	4.160426e-001
31562500	-9.002090e-001	4.179250e-001
31718750	-8.992949e-001	4.197595e-001
31875000	-8.984474e-001	4.216042e-001
32031250	-8.975791e-001	4.237075e-001
32187500	-8.966894e-001	4.257247e-001
32343750	-8.956989e-001	4.274256e-001
32500000	-8.947025e-001	4.291364e-001
32656250	-8.939151e-001	4.312217e-001
32812500	-8.931401e-001	4.332079e-001
32968750	-8.920624e-001	4.350117e-001
33125000	-8.910821e-001	4.368486e-001
33281250	-8.900362e-001	4.387870e-001
33437500	-8.890097e-001	4.406930e-001
33593750	-8.880415e-001	4.424248e-001
33750000	-8.870531e-001	4.442227e-001
33906250	-8.862461e-001	4.463368e-001
34062500	-8.854167e-001	4.483528e-001
34218750	-8.843444e-001	4.502515e-001
34375000	-8.833417e-001	4.521006e-001
34531250	-8.824139e-001	4.540048e-001
34687500	-8.814764e-001	4.559003e-001
34843750	-8.804372e-001	4.576898e-001
35000000	-8.793868e-001	4.595366e-001
35156250	-8.784016e-001	4.614666e-001
35312500	-8.773925e-001	4.633750e-001
35468750	-8.763899e-001	4.652511e-001
35625000	-8.754465e-001	4.671032e-001
35781250	-8.744337e-001	4.688120e-001
35937500	-8.733716e-001	4.705618e-001
36093750	-8.722973e-001	4.723327e-001
36250000	-8.712681e-001	4.741876e-001
36406250	-8.703002e-001	4.761613e-001
36562500	-8.693412e-001	4.780808e-001
36718750	-8.683084e-001	4.798831e-001
36875000	-8.673228e-001	4.817046e-001
37031250	-8.661936e-001	4.836091e-001
37187500	-8.651476e-001	4.854359e-001
37343750	-8.641705e-001	4.872692e-001
37500000	-8.630646e-001	4.890226e-001
37656250	-8.618774e-001	4.907374e-001
37812500	-8.606995e-001	4.925326e-001
37968750	-8.597596e-001	4.943987e-001
38125000	-8.587522e-001	4.962488e-001
38281250	-8.576230e-001	4.980640e-001
38437500	-8.565948e-001	4.999384e-001
38593750	-8.554860e-001	5.015956e-001
38750000	-8.544265e-001	5.032479e-001
38906250	-8.533162e-001	5.051236e-001
39062500	-8.522102e-001	5.069166e-001
39218750	-8.512587e-001	5.088604e-001
39375000	-8.502601e-001	5.107814e-001
39531250	-8.489190e-001	5.124832e-001
39687500	-8.476915e-001	5.142209e-001
39843750	-8.467055e-001	5.160858e-001
40000000	-8.457213e-001	5.178768e-001
40156250	-8.445668e-001	5.195381e-001
40312500	-8.434226e-001	5.212613e-001
40468750	-8.422924e-001	5.230150e-001
40625000	-8.411457e-001	5.248492e-001
40781250	-8.398942e-001	5.266796e-001
40937500	-8.387194e-001	5.285414e-001
41093750	-8.376050e-001	5.303179e-001
41250000	-8.365363e-001	5.320955e-001
41406250	-8.353757e-001	5.339293e-001
41562500	-8.341678e-001	5.356845e-001
41718750	-8.330348e-001	5.374265e-001
41875000	-8.318841e-001	5.391419e-001
42031250	-8.308149e-001	5.408809e-001
42187500	-8.296682e-001	5.426550e-001
42343750	-8.283759e-001	5.444015e-001
42500000	-8.272129e-001	5.461638e-001
42656250	-8.260330e-001	5.479677e-001
42812500	-8.248591e-001	5.497677e-001
42968750	-8.237678e-001	5.514782e-001
43125000	-8.225340e-001	5.531852e-001
43281250	-8.213686e-001	5.548401e-001
43437500	-8.201696e-001	5.564913e-001
43593750	-8.189224e-001	5.580496e-001
43750000	-8.176221e-001	5.596536e-001
43906250	-8.165569e-001	5.615470e-001
44062500	-8.154702e-001	5.634437e-001
44218750	-8.143389e-001	5.652866e-001
44375000	-8.130923e-001	5.670457e-001
44531250	-8.117799e-001	5.686079e-001
44687500	-8.104195e-001	5.702807e-001
44843750	-8.091391e-001	5.721371e-001
45000000	-8.079556e-001	5.738669e-001
45156250	-8.068514e-001	5.754579e-001
45312500	-8.056946e-001	5.771090e-001
45468750	-8.042909e-001	5.786869e-001
45625000	-8.029017e-001	5.804069e-001
45781250	-8.018646e-001	5.820615e-001
45937500	-8.007146e-001	5.838029e-001
46093750	-7.993401e-001	5.854571e-001
46250000	-7.980866e-001	5.871073e-001
46406250	-7.968821e-001	5.888128e-001
46562500	-7.956525e-001	5.904551e-001
46718750	-7.943247e-001	5.921066e-001
46875000	-7.930247e-001	5.938104e-001
47031250	-7.916454e-001	5.955051e-001
47187500	-7.904243e-001	5.972273e-001
47343750	-7.893376e-001	5.990353e-001
47500000	-7.881519e-001	6.008236e-001
47656250	-7.868462e-001	6.023156e-001
47812500	-7.854629e-001	6.038382e-001
47968750	-7.837912e-001	6.054421e-001
48125000	-7.823763e-001	6.070730e-001
48281250	-7.814069e-001	6.087620e-001
48437500	-7.803446e-001	6.104253e-001
48593750	-7.789419e-001	6.120286e-001
48750000	-7.775231e-001	6.137136e-001
48906250	-7.761783e-001	6.154223e-001
49062500	-7.748411e-001	6.170618e-001
49218750	-7.735855e-001	6.186110e-001
49375000	-7.723470e-001	6.201974e-001
49531250	-7.711821e-001	6.218395e-001
49687500	-7.698950e-001	6.234465e-001
49843750	-7.683676e-001	6.249550e-001
50000000	-7.669481e-001	6.266141e-001
50156250	-7.656670e-001	6.284471e-001
50312500	-7.643834e-001	6.301844e-001
50468750	-7.628559e-001	6.317257e-001
50625000	-7.613776e-001	6.332542e-001
50781250	-7.601713e-001	6.348444e-001
50937500	-7.588458e-001	6.364237e-001
51093750	-7.573305e-001	6.380013e-001
51250000	-7.558708e-001	6.395648e-001
51406250	-7.546248e-001	6.412495e-001
51562500	-7.533565e-001	6.428920e-001
51718750	-7.519578e-001	6.443259e-001
51875000	-7.505651e-001	6.457896e-001
52031250	-7.493330e-001	6.474479e-001
52187500	-7.479783e-001	6.490930e-001
52343750	-7.465591e-001	6.505735e-001
52500000	-7.451439e-001	6.521317e-001
52656250	-7.437445e-001	6.538059e-001
52812500	-7.423617e-001	6.554666e-001
52968750	-7.409946e-001	6.570221e-001
53125000	-7.396351e-001	6.586278e-001
53281250	-7.381350e-001	6.603105e-001
53437500	-7.366380e-001	6.618656e-001
53593750	-7.352173e-001	6.632499e-001
53750000	-7.337765e-001	6.646832e-001
53906250	-7.323285e-001	6.660735e-001
54062500	-7.309200e-001	6.675440e-001
54218750	-7.296329e-001	6.691496e-001
54375000	-7.282644e-001	6.708600e-001
54531250	-7.268390e-001	6.725656e-001
54687500	-7.253932e-001	6.742183e-001
54843750	-7.238784e-001	6.757051e-001
55000000	-7.223217e-001	6.771765e-001
55156250	-7.208079e-001	6.786808e-001
55312500	-7.193621e-001	6.801932e-001
55468750	-7.181169e-001	6.817902e-001
55625000	-7.168132e-001	6.832446e-001
55781250	-7.152189e-001	6.845228e-001
55937500	-7.136690e-001	6.858819e-001
56093750	-7.122533e-001	6.872818e-001
56250000	-7.108438e-001	6.887724e-001
56406250	-7.093623e-001	6.904404e-001
56562500	-7.079431e-001	6.920241e-001
56718750	-7.063777e-001	6.935398e-001
56875000	-7.049440e-001	6.950169e-001
57031250	-7.035142e-001	6.965523e-001
57187500	-7.020976e-001	6.980332e-001
57343750	-7.005381e-001	6.993429e-001
57500000	-6.989921e-001	7.007107e-001
57656250	-6.974256e-001	7.023135e-001
57812500	-6.958663e-001	7.038258e-001
57968750	-6.944861e-001	7.053100e-001
58125000	-6.930950e-001	7.067680e-001
58281250	-6.915257e-001	7.081731e-001
58437500	-6.900709e-001	7.095821e-001
58593750	-6.886712e-001	7.110590e-001
58750000	-6.871267e-001	7.125739e-001
58906250	-6.852862e-001	7.139305e-001
59062500	-6.837071e-001	7.153578e-001
59218750	-6.824570e-001	7.168579e-001
59375000	-6.810864e-001	7.183663e-001
59531250	-6.793935e-001	7.197723e-001
59687500	-6.777744e-001	7.211823e-001
59843750	-6.762660e-001	7.225436e-001
60000000	-6.748208e-001	7.238328e-001
60156250	-6.733076e-001	7.252125e-001
60312500	-6.717334e-001	7.265771e-001
60468750	-6.701113e-001	7.280548e-001
60625000	-6.685782e-001	7.295454e-001
60781250	-6.672317e-001	7.310985e-001
60937500	-6.657402e-001	7.325787e-001
61093750	-6.640100e-001	7.337954e-001
61250000	-6.623292e-001	7.350738e-001
61406250	-6.607499e-001	7.366335e-001
61562500	-6.592037e-001	7.380872e-001
61718750	-6.578073e-001	7.395307e-001
61875000	-6.563010e-001	7.408643e-001
62031250	-6.544038e-001	7.421534e-001
62187500	-6.526436e-001	7.434039e-001
62343750	-6.511869e-001	7.446868e-001
62500000	-6.495878e-001	7.460467e-001
62656250	-6.479252e-001	7.474585e-001
62812500	-6.463204e-001	7.488534e-001
62968750	-6.448974e-001	7.502093e-001
63125000	-6.434092e-001	7.515624e-001
63281250	-6.417829e-001	7.528911e-001
63437500	-6.401104e-001	7.542509e-001
63593750	-6.384540e-001	7.556150e-001
63750000	-6.368560e-001	7.569058e-001
63906250	-6.354585e-001	7.581738e-001
64062500	-6.339606e-001	7.594353e-001
64218750	-6.322749e-001	7.608061e-001
64375000	-6.306248e-001	7.622154e-001
64531250	-6.290828e-001	7.637235e-001
64687500	-6.273815e-001	7.651024e-001
64843750	-6.255456e-001	7.662342e-001
65000000	-6.238104e-001	7.673987e-001
65156250	-6.222169e-001	7.687693e-001
65312500	-6.205721e-001	7.700896e-001
65468750	-6.191350e-001	7.711899e-001
65625000	-6.175491e-001	7.724802e-001
65781250	-6.158837e-001	7.740934e-001
65937500	-6.142106e-001	7.755454e-001
66093750	-6.125439e-001	7.765922e-001
66250000	-6.108926e-001	7.777856e-001
66406250	-6.093229e-001	7.791666e-001
66562500	-6.076491e-001	7.804882e-001
66718750	-6.060420e-001	7.817460e-001
66875000	-6.044359e-001	7.830390e-001
67031250	-6.027572e-001	7.843746e-001
67187500	-6.011022e-001	7.857091e-001
67343750	-5.993154e-001	7.869003e-001
67500000	-5.976613e-001	7.882291e-001
67656250	-5.958702e-001	7.895056e-001
67812500	-5.941246e-001	7.907216e-001
67968750	-5.925139e-001	7.917270e-001
68125000	-5.910422e-001	7.929470e-001
68281250	-5.892206e-001	7.941546e-001
68437500	-5.875624e-001	7.954984e-001
68593750	-5.860682e-001	7.969136e-001
68750000	-5.845280e-001	7.982853e-001
68906250	-5.826774e-001	7.996071e-001
69062500	-5.809257e-001	8.008010e-001
69218750	-5.792925e-001	8.018278e-001
69375000	-5.776777e-001	8.029723e-001
69531250	-5.759946e-001	8.041894e-001
69687500	-5.743491e-001	8.054509e-001
69843750	-5.726757e-001	8.067393e-001
70000000	-5.709886e-001	8.078797e-001
70156250	-5.692153e-001	8.089544e-001
70312500	-5.675292e-001	8.100462e-001
70468750	-5.657427e-001	8.112701e-001
70625000	-5.640010e-001	8.125640e-001
70781250	-5.623488e-001	8.135907e-001
70937500	-5.605970e-001	8.148043e-001
71093750	-5.588671e-001	8.160608e-001
71250000	-5.571282e-001	8.172562e-001
71406250	-5.554075e-001	8.183747e-001
71562500	-5.536705e-001	8.194681e-001
71718750	-5.520067e-001	8.206450e-001
71875000	-5.502352e-001	8.218673e-001
72031250	-5.483280e-001	8.231700e-001
72187500	-5.464972e-001	8.243586e-001
72343750	-5.447816e-001	8.255575e-001
72500000	-5.430463e-001	8.266946e-001
72656250	-5.412505e-001	8.276385e-001
72812500	-5.395267e-001	8.287155e-001
72968750	-5.379556e-001	8.299888e-001
73125000	-5.363306e-001	8.312502e-001
73281250	-5.346427e-001	8.324022e-001
73437500	-5.328433e-001	8.335216e-001
73593750	-5.309042e-001	8.344941e-001
73750000	-5.290602e-001	8.355774e-001
73906250	-5.273693e-001	8.368453e-001
74062500	-5.256828e-001	8.379252e-001
74218750	-5.239636e-001	8.386862e-001
74375000	-5.221392e-001	8.397311e-001
74531250	-5.201936e-001	8.412142e-001
74687500	-5.183637e-001	8.424380e-001
74843750	-5.167484e-001	8.431810e-001
75000000	-5.149806e-001	8.439608e-001
75156250	-5.131221e-001	8.451633e-001
75312500	-5.112913e-001	8.462684e-001
75468750	-5.095273e-001	8.473412e-001
75625000	-5.077851e-001	8.484464e-001
75781250	-5.060588e-001	8.495359e-001
75937500	-5.042813e-001	8.506476e-001
76093750	-5.025017e-001	8.517735e-001
76250000	-5.006783e-001	8.527823e-001
76406250	-4.989199e-001	8.537870e-001
76562500	-4.970495e-001	8.548010e-001
76718750	-4.952146e-001	8.558180e-001
76875000	-4.933723e-001	8.568304e-001
77031250	-4.915883e-001	8.578431e-001
77187500	-4.897935e-001	8.588287e-001
77343750	-4.878489e-001	8.597502e-001
77500000	-4.861182e-001	8.608024e-001
77656250	-4.845160e-001	8.619381e-001
77812500	-4.828272e-001	8.630661e-001
77968750	-4.808502e-001	8.640594e-001
78125000	-4.789805e-001	8.650250e-001
78281250	-4.771313e-001	8.658948e-001
78437500	-4.752958e-001	8.668276e-001
78593750	-4.735060e-001	8.677573e-001
78750000	-4.716585e-001	8.687220e-001
78906250	-4.696717e-001	8.698180e-001
79062500	-4.677406e-001	8.707806e-001
79218750	-4.659541e-001	8.717253e-001
79375000	-4.641942e-001	8.726786e-001
79531250	-4.623121e-001	8.737786e-001
79687500	-4.604557e-001	8.748868e-001
79843750	-4.586925e-001	8.757934e-001
80000000	-4.569613e-001	8.767767e-001
80156250	-4.552730e-001	8.777556e-001
80312500	-4.534323e-001	8.786310e-001
80468750	-4.513014e-001	8.793023e-001
80625000	-4.494174e-001	8.801937e-001
80781250	-4.478071e-001	8.813806e-001
80937500	-4.459514e-001	8.824438e-001
81093750	-4.437614e-001	8.831962e-001
81250000	-4.417051e-001	8.840188e-001
81406250	-4.398764e-001	8.849442e-001
81562500	-4.380932e-001	8.858372e-001
81718750	-4.363955e-001	8.867091e-001
81875000	-4.346340e-001	8.875656e-001
82031250	-4.326677e-001	8.883633e-001
82187500	-4.308408e-001	8.893489e-001
82343750	-4.290432e-001	8.904964e-001
82500000	-4.270978e-001	8.915668e-001
82656250	-4.249742e-001	8.924460e-001
82812500	-4.230498e-001	8.933066e-001
82968750	-4.214194e-001	8.941122e-001
83125000	-4.196453e-001	8.949283e-001
83281250	-4.178514e-001	8.956678e-001
83437500	-4.158948e-001	8.964329e-001
83593750	-4.139103e-001	8.972151e-001
83750000	-4.119919e-001	8.980651e-001
83906250	-4.101215e-001	8.990806e-001
84062500	-4.082211e-001	8.999792e-001
84218750	-4.063062e-001	9.008619e-001
84375000	-4.043665e-001	9.016849e-001
84531250	-4.024818e-001	9.024378e-001
84687500	-4.005589e-001	9.033154e-001
84843750	-3.986131e-001	9.042059e-001
85000000	-3.967364e-001	9.050472e-001
85156250	-3.949431e-001	9.057873e-001
85312500	-3.930642e-001	9.065668e-001
85468750	-3.911193e-001	9.074534e-001
85625000	-3.892654e-001	9.082701e-001
85781250	-3.874844e-001	9.089911e-001
85937500	-3.855661e-001	9.097635e-001
86093750	-3.834085e-001	9.105299e-001
86250000	-3.813921e-001	9.112967e-001
86406250	-3.796755e-001	9.120605e-001
86562500	-3.778025e-001	9.128288e-001
86718750	-3.758684e-001	9.136811e-001
86875000	-3.739419e-001	9.144165e-001
87031250	-3.720459e-001	9.152509e-001
87187500	-3.700988e-001	9.160387e-001
87343750	-3.681088e-001	9.168717e-001
87500000	-3.661120e-001	9.176317e-001
87656250	-3.641963e-001	9.183892e-001
87812500	-3.623958e-001	9.191206e-001
87968750	-3.607620e-001	9.198989e-001
88125000	-3.589307e-001	9.206168e-001
88281250	-3.569395e-001	9.212976e-001
88437500	-3.548480e-001	9.219928e-001
88593750	-3.526086e-001	9.227542e-001
